#  HZ   S   RI   R     50.00 
! Rohde & Schwarz Vector Network Analyzer 
! Rohde-Schwarz,ZNB8-2Port,1311601042102944,2.30
! Created: UTC 3/16/2026, 1:11:39 PM
! freq[Hz]                re:S22                  im:S22
 6.695000000000000E8     2.895560685175897E-1    8.752839958810882E-1
 6.715000000000000E8     3.043235361895988E-1    8.706242912347664E-1
 6.735000000000000E8     3.192205917782525E-1    8.653491831904417E-1
 6.755000000000000E8     3.336819604090540E-1    8.602998650564109E-1
 6.775000000000000E8     3.484337852533688E-1    8.542485327527104E-1
 6.795000000000000E8     3.629998065522091E-1    8.485571218277037E-1
 6.815000000000000E8     3.767659988755121E-1    8.411603855538719E-1
 6.835000000000000E8     3.915806690378226E-1    8.348432643123784E-1
 6.855000000000000E8     4.054115180292945E-1    8.278250369204973E-1
 6.875000000000000E8     4.187837398078252E-1    8.205548563826235E-1
 6.895000000000000E8     4.323722433700513E-1    8.132290061575697E-1
 6.915000000000000E8     4.461566908728414E-1    8.060424648395208E-1
 6.935000000000000E8     4.592602400942006E-1    7.981165704434866E-1
 6.955000000000000E8     4.728087674193044E-1    7.899618024767953E-1
 6.975000000000000E8     4.861634396624543E-1    7.815176073348027E-1
 6.995000000000000E8     4.997553681931884E-1    7.735232043446844E-1
 7.015000000000000E8     5.122940958025021E-1    7.637128829431275E-1
 7.035000000000000E8     5.256012705659842E-1    7.546596466943459E-1
 7.055000000000000E8     5.381248306982897E-1    7.448705307268615E-1
 7.075000000000000E8     5.507176591586780E-1    7.353357717779212E-1
 7.095000000000000E8     5.626501288236244E-1    7.258611739453048E-1
 7.115000000000000E8     5.751955897721490E-1    7.149683800300926E-1
 7.135000000000000E8     5.873076369813676E-1    7.048751774301748E-1
 7.155000000000000E8     5.996229366521010E-1    6.945195853305192E-1
 7.175000000000000E8     6.119230300843076E-1    6.835480114998729E-1
 7.195000000000000E8     6.246839872613004E-1    6.726046612490322E-1
 7.215000000000000E8     6.365120103803742E-1    6.611219789699950E-1
 7.235000000000000E8     6.474768691923433E-1    6.495119263296104E-1
 7.255000000000000E8     6.587692283201287E-1    6.372629218878999E-1
 7.275000000000000E8     6.704942564028352E-1    6.253792848028791E-1
 7.295000000000000E8     6.821598006688674E-1    6.131576065896942E-1
 7.315000000000000E8     6.933048312562132E-1    6.002297841316826E-1
 7.335000000000000E8     7.043781929921918E-1    5.870308707837764E-1
 7.355000000000000E8     7.156581510162831E-1    5.734044842097984E-1
 7.375000000000000E8     7.258154122043444E-1    5.590578544258080E-1
 7.395000000000000E8     7.358114513497780E-1    5.448801705641237E-1
 7.415000000000000E8     7.453714826681945E-1    5.297086791191825E-1
 7.435000000000000E8     7.547596341725816E-1    5.147282334242895E-1
 7.455000000000000E8     7.641864114867148E-1    4.995086495307937E-1
 7.475000000000000E8     7.723896491289343E-1    4.842704527844125E-1
 7.495000000000000E8     7.806343904641542E-1    4.696255741162001E-1
 7.515000000000000E8     7.901090794283054E-1    4.517520332806851E-1
 7.535000000000000E8     7.998722573200788E-1    4.340819417974428E-1
 7.555000000000000E8     8.071085208082868E-1    4.171224220240689E-1
 7.575000000000000E8     8.135005576618291E-1    4.009227099901870E-1
 7.595000000000000E8     8.191368441598682E-1    3.860076512138201E-1
 7.615000000000000E8     8.235043956023151E-1    3.719652202290292E-1
 7.635000000000000E8     8.285019169603484E-1    3.569610366667131E-1
 7.655000000000000E8     8.342067699468235E-1    3.416362512609087E-1
 7.675000000000000E8     8.425572237727075E-1    3.241853973756348E-1
 7.695000000000000E8     8.492006634502420E-1    3.041646548591706E-1
 7.715000000000000E8     8.551371275966925E-1    2.847394184024298E-1
 7.735000000000000E8     8.611232611452868E-1    2.649530005133054E-1
 7.755000000000000E8     8.644593123062269E-1    2.463894075149473E-1
 7.775000000000000E8     8.683788482308840E-1    2.270314924961674E-1
 7.795000000000000E8     8.714415050033322E-1    2.070491937358351E-1
 7.815000000000000E8     8.736635378600814E-1    1.873611638890787E-1
 7.835000000000000E8     8.755606838615806E-1    1.663558225880730E-1
 7.855000000000000E8     8.773389712658366E-1    1.460516317980999E-1
 7.875000000000000E8     8.785527082449772E-1    1.243875191288282E-1
 7.895000000000000E8     8.789147163622543E-1    1.027898032070089E-1
 7.915000000000000E8     8.785664866022148E-1    8.063279035193714E-2
 7.935000000000000E8     8.762863930032766E-1    5.861312679278672E-2
 7.955000000000000E8     8.752256340565603E-1    3.635408653442812E-2
 7.975000000000000E8     8.716353158188394E-1    1.451087562408224E-2
 7.995000000000000E8     8.684827866569129E-1   -8.143231897673610E-3
 8.015000000000000E8     8.644379938929652E-1   -3.105407618745466E-2
 8.035000000000000E8     8.590006880115262E-1   -5.309957180545091E-2
 8.055000000000000E8     8.541655424901665E-1   -7.581704186828418E-2
 8.075000000000000E8     8.479066816653625E-1   -9.906132224114853E-2
 8.095000000000000E8     8.407102817022426E-1   -1.236169629800433E-1
 8.115000000000000E8     8.326332145195959E-1   -1.479082121534797E-1
 8.135000000000000E8     8.220704435085395E-1   -1.719421019139629E-1
 8.155000000000000E8     8.112613835979529E-1   -1.962948762277825E-1
 8.175000000000000E8     7.985725826868080E-1   -2.212891547868434E-1
 8.195000000000000E8     7.832930092014681E-1   -2.456085809398636E-1
 8.215000000000000E8     7.674878732363103E-1   -2.696360781000003E-1
 8.235000000000000E8     7.492406324627446E-1   -2.925776010318442E-1
 8.255000000000000E8     7.307004340810567E-1   -3.148241074997679E-1
 8.275000000000000E8     7.106552084735391E-1   -3.366722844178732E-1
 8.295000000000000E8     6.894848236070142E-1   -3.585020180594267E-1
 8.315000000000000E8     6.654843689360803E-1   -3.800935370259332E-1
 8.335000000000000E8     6.399252552878101E-1   -3.998952462147181E-1
 8.355000000000000E8     6.114456233677423E-1   -4.179993635188224E-1
 8.375000000000000E8     5.820846719179145E-1   -4.348587268650727E-1
 8.395000000000000E8     5.516453972651171E-1   -4.493155783317190E-1
 8.415000000000000E8     5.198974633924025E-1   -4.617660134828174E-1
 8.435000000000000E8     4.874686798607623E-1   -4.732172755842738E-1
 8.455000000000000E8     4.540105583094724E-1   -4.823280699974301E-1
 8.475000000000000E8     4.188868568237371E-1   -4.901315594549165E-1
 8.495000000000000E8     3.821483954934398E-1   -4.954401186741300E-1
 8.515000000000000E8     3.432409367558837E-1   -4.979919231088142E-1
 8.535000000000000E8     3.036053620305982E-1   -4.972370531176723E-1
 8.555000000000000E8     2.633306070235635E-1   -4.928215313069375E-1
 8.575000000000000E8     2.231111711912764E-1   -4.834775549181738E-1
 8.595000000000000E8     1.839687783094037E-1   -4.696198556968048E-1
 8.615000000000000E8     1.476221180777771E-1   -4.526987971391931E-1
 8.635000000000000E8     1.125228699581838E-1   -4.343350964026541E-1
 8.655000000000000E8     7.888409330722723E-2   -4.126357767268340E-1
 8.675000000000000E8     4.587374863892431E-2   -3.877373151704639E-1
 8.695000000000000E8     1.546023868163079E-2   -3.586581283570177E-1
 8.715000000000000E8    -1.048324956877636E-2   -3.277225393984154E-1
 8.735000000000000E8    -3.391577417208880E-2   -2.944053198940504E-1
 8.755000000000000E8    -5.333355578839383E-2   -2.593565374732117E-1
 8.775000000000000E8    -6.989659668019092E-2   -2.243295778932393E-1
 8.795000000000000E8    -8.454884624694502E-2   -1.888092358159047E-1
 8.815000000000000E8    -9.664623938141856E-2   -1.503844499040487E-1
 8.835000000000000E8    -1.048364186163461E-1   -1.098432988536598E-1
 8.855000000000000E8    -1.085359035688949E-1   -6.847356978520584E-2
 8.875000000000000E8    -1.071887960221561E-1   -2.722430814789176E-2
 8.895000000000000E8    -1.002063057306731E-1    1.443265321210268E-2
 8.915000000000000E8    -8.810013940573384E-2    5.332887609897227E-2
 8.935000000000000E8    -7.132385753227252E-2    8.878234023630698E-2
 8.955000000000000E8    -5.262532249792859E-2    1.199460194428459E-1
 8.975000000000000E8    -3.173949303146000E-2    1.474132248584026E-1
 8.995000000000000E8    -9.997165267666924E-3    1.725188820886382E-1
 9.015000000000000E8     1.258016600753538E-2    1.938010008167539E-1
 9.035000000000000E8     3.550290588236984E-2    2.122618137658497E-1
 9.055000000000000E8     5.769008367393416E-2    2.290387431456321E-1
 9.075000000000000E8     8.079083555677562E-2    2.439679330588854E-1
 9.095000000000000E8     1.035599746485632E-1    2.572368744328886E-1
 9.115000000000000E8     1.266743543993039E-1    2.682883317000773E-1
 9.135000000000000E8     1.501541537718481E-1    2.790210033433913E-1
 9.155000000000000E8     1.745732834961098E-1    2.870126864712170E-1
 9.175000000000000E8     1.982821074247224E-1    2.931336883366860E-1
 9.195000000000000E8     2.216253694430974E-1    2.974323134499523E-1
 9.215000000000000E8     2.452873196020124E-1    3.005020674733067E-1
 9.235000000000000E8     2.692532786393390E-1    3.012550978442742E-1
 9.255000000000000E8     2.921480108922588E-1    3.001826191677548E-1
 9.275000000000000E8     3.144049742614340E-1    2.968397110340937E-1
 9.295000000000000E8     3.343763541815148E-1    2.922728860002260E-1
 9.315000000000000E8     3.526674912999969E-1    2.885269731366231E-1
 9.335000000000000E8     3.712678945831814E-1    2.834364770775958E-1
 9.355000000000000E8     3.902073616282507E-1    2.774039245569554E-1
 9.375000000000000E8     4.070411459334276E-1    2.701076386568906E-1
 9.395000000000000E8     4.228401469046392E-1    2.622068589578519E-1
 9.415000000000000E8     4.376007902023039E-1    2.544130296411663E-1
 9.435000000000000E8     4.513339526670662E-1    2.458770250607370E-1
 9.455000000000000E8     4.644925765657287E-1    2.375997281321648E-1
 9.475000000000000E8     4.782193661166566E-1    2.300887792411534E-1
 9.495000000000000E8     4.913485051300264E-1    2.216077703427169E-1
 9.515000000000000E8     5.052770317234870E-1    2.125498643596983E-1
 9.535000000000000E8     5.181188500376414E-1    2.010916341055256E-1
 9.555000000000000E8     5.299886296222912E-1    1.890119394122557E-1
 9.575000000000000E8     5.386824192134643E-1    1.762944472801969E-1
 9.595000000000000E8     5.469829491188468E-1    1.637837752171557E-1
 9.615000000000000E8     5.535466028921617E-1    1.520234319110292E-1
 9.635000000000000E8     5.593868410554489E-1    1.406321648622936E-1
 9.655000000000000E8     5.641336471305588E-1    1.308257796787481E-1
 9.675000000000000E8     5.693089525312778E-1    1.217332204349195E-1
 9.695000000000000E8     5.747260647896972E-1    1.122877027314799E-1
 9.715000000000000E8     5.797955017443278E-1    1.034757258073472E-1
 9.735000000000000E8     5.845182023945886E-1    9.516058707999639E-2
 9.755000000000000E8     5.899269101652233E-1    8.653792821384863E-2
 9.775000000000000E8     5.957767791454142E-1    7.749201991735927E-2
 9.795000000000000E8     6.009417869082163E-1    6.764718074508656E-2
 9.815000000000000E8     6.048345638302207E-1    5.875732308818887E-2
 9.835000000000000E8     6.070801731015492E-1    5.061121717099036E-2
 9.855000000000000E8     6.107766725598444E-1    4.425829050231964E-2
 9.875000000000000E8     6.155954794654511E-1    3.746559074665920E-2
 9.895000000000000E8     6.215458363353563E-1    3.080160024995784E-2
 9.915000000000000E8     6.274037091098434E-1    2.260008381196292E-2
 9.935000000000000E8     6.338864081526695E-1    1.469325152289529E-2
 9.955000000000000E8     6.403718028567603E-1    5.402610345836420E-3
 9.975000000000000E8     6.458938313458514E-1   -4.089452152604927E-3
 9.995000000000000E8     6.504253524639921E-1   -1.428690778030525E-2
 1.001500000000000E9     6.553468130257409E-1   -2.317013538697499E-2
 1.003500000000000E9     6.607664341502723E-1   -3.266773386291812E-2
 1.005500000000000E9     6.652473222688703E-1   -4.261586636315165E-2
 1.007500000000000E9     6.697018440698841E-1   -5.325913097291796E-2
 1.009500000000000E9     6.731333771497574E-1   -6.394352963004105E-2
 1.011500000000000E9     6.766868155247281E-1   -7.406088964086199E-2
 1.013500000000000E9     6.810838849290476E-1   -8.305394236389488E-2
 1.015500000000000E9     6.849872213799854E-1   -9.333088854753066E-2
 1.017500000000000E9     6.890792004698516E-1   -1.037845424604930E-1
 1.019500000000000E9     6.937549887853974E-1   -1.152731403973379E-1
 1.021500000000000E9     6.976696029008415E-1   -1.266476063157798E-1
 1.023500000000000E9     7.014377254267118E-1   -1.388821387985678E-1
 1.025500000000000E9     7.044952624027805E-1   -1.511540142850839E-1
 1.027500000000000E9     7.061832713232433E-1   -1.643842835687095E-1
 1.029500000000000E9     7.074464551175272E-1   -1.772117948272352E-1
 1.031500000000000E9     7.089702002298666E-1   -1.889253958832358E-1
 1.033500000000000E9     7.100560026531777E-1   -2.003398099395637E-1
 1.035500000000000E9     7.118398544060590E-1   -2.125184227748660E-1
 1.037500000000000E9     7.129182281690343E-1   -2.248246446073459E-1
 1.039500000000000E9     7.141767046056260E-1   -2.380507677531232E-1
 1.041500000000000E9     7.142903650211533E-1   -2.511911390102443E-1
 1.043500000000000E9     7.140053092149273E-1   -2.643311429084356E-1
 1.045500000000000E9     7.126515542084262E-1   -2.781586522691539E-1
 1.047500000000000E9     7.112515076342004E-1   -2.913262345590044E-1
 1.049500000000000E9     7.087316884186562E-1   -3.043247603385286E-1
 1.051500000000000E9     7.065744859931609E-1   -3.167182500388292E-1
 1.053500000000000E9     7.046427119054035E-1   -3.288145185283058E-1
 1.055500000000000E9     7.026610927990034E-1   -3.404999292090962E-1
 1.057500000000000E9     7.004761255869395E-1   -3.525254825167290E-1
 1.059500000000000E9     6.980452635985897E-1   -3.650349266200698E-1
 1.061500000000000E9     6.963822653911740E-1   -3.776932940231834E-1
 1.063500000000000E9     6.937638066893107E-1   -3.903102847785995E-1
 1.065500000000000E9     6.909232169893020E-1   -4.035475711495630E-1
 1.067500000000000E9     6.873109269743222E-1   -4.155360163974870E-1
 1.069500000000000E9     6.833970364024083E-1   -4.286862651691881E-1
