#  HZ   S   RI   R     50.00 
! Rohde & Schwarz Vector Network Analyzer 
! Rohde-Schwarz,ZNB8-2Port,1311601042102944,2.30
! Created: UTC 3/16/2026, 1:07:08 PM
! freq[Hz]                re:S22                  im:S22
 6.695000000000000E8    -8.235047622601431E-1   -3.223530391362902E-1
 6.715000000000000E8    -8.280601119588942E-1   -3.149573488647123E-1
 6.735000000000000E8    -8.317416127621221E-1   -3.062166783132153E-1
 6.755000000000000E8    -8.359490256319556E-1   -2.967533577445359E-1
 6.775000000000000E8    -8.395504167979586E-1   -2.869405677032355E-1
 6.795000000000000E8    -8.426851386755014E-1   -2.777192755180561E-1
 6.815000000000000E8    -8.455351204879441E-1   -2.672307633056144E-1
 6.835000000000000E8    -8.484152633609260E-1   -2.565060682668151E-1
 6.855000000000000E8    -8.505085838250218E-1   -2.465327531780972E-1
 6.875000000000000E8    -8.519739882669135E-1   -2.353785631813053E-1
 6.895000000000000E8    -8.533786060258500E-1   -2.242357295595277E-1
 6.915000000000000E8    -8.542200032242246E-1   -2.124545362344445E-1
 6.935000000000000E8    -8.531662515745890E-1   -2.028754572855456E-1
 6.955000000000000E8    -8.540130439387574E-1   -1.936854023694007E-1
 6.975000000000000E8    -8.546165588698967E-1   -1.831304796264404E-1
 6.995000000000000E8    -8.552105729638700E-1   -1.733405600569744E-1
 7.015000000000000E8    -8.548334993905122E-1   -1.629773378678076E-1
 7.035000000000000E8    -8.534714775900603E-1   -1.519389128946814E-1
 7.055000000000000E8    -8.520030130121283E-1   -1.424793610902526E-1
 7.075000000000000E8    -8.512973853540479E-1   -1.327997833682701E-1
 7.095000000000000E8    -8.495159313515543E-1   -1.243092386740452E-1
 7.115000000000000E8    -8.484757795279032E-1   -1.156108354702562E-1
 7.135000000000000E8    -8.489443460108611E-1   -1.068437861721843E-1
 7.155000000000000E8    -8.496786529642786E-1   -9.795934901688098E-2
 7.175000000000000E8    -8.502918477112449E-1   -8.789405498566574E-2
 7.195000000000000E8    -8.502714889845402E-1   -7.696906123393682E-2
 7.215000000000000E8    -8.493190355157915E-1   -6.579591685353846E-2
 7.235000000000000E8    -8.487769977061898E-1   -5.560340460492852E-2
 7.255000000000000E8    -8.482641848820449E-1   -4.624501910856983E-2
 7.275000000000000E8    -8.486870947483848E-1   -3.609801206521909E-2
 7.295000000000000E8    -8.489869564897857E-1   -2.368917480250869E-2
 7.315000000000000E8    -8.484287192175800E-1   -1.248586365482649E-2
 7.335000000000000E8    -8.475725530775146E-1   -3.843697922058039E-4
 7.355000000000000E8    -8.464596026887229E-1    1.231727275413147E-2
 7.375000000000000E8    -8.443419609812061E-1    2.561316918236767E-2
 7.395000000000000E8    -8.412864671591059E-1    3.770542444280325E-2
 7.415000000000000E8    -8.380390857637006E-1    5.102748519253671E-2
 7.435000000000000E8    -8.346743215527365E-1    6.446060551127039E-2
 7.455000000000000E8    -8.301634756889276E-1    7.804794451306606E-2
 7.475000000000000E8    -8.252206407938456E-1    9.123568039926684E-2
 7.495000000000000E8    -8.187809244690271E-1    1.037297631026332E-1
 7.515000000000000E8    -8.128605986402857E-1    1.182886607547863E-1
 7.535000000000000E8    -8.058265068188372E-1    1.327682393990507E-1
 7.555000000000000E8    -7.977390202658784E-1    1.452770495369377E-1
 7.575000000000000E8    -7.907943927329739E-1    1.562661679031034E-1
 7.595000000000000E8    -7.835634846547762E-1    1.665558550755243E-1
 7.615000000000000E8    -7.750567258994204E-1    1.737833179242780E-1
 7.635000000000000E8    -7.677012632170547E-1    1.815539855111983E-1
 7.655000000000000E8    -7.607316277669804E-1    1.903972189010421E-1
 7.675000000000000E8    -7.528016947410825E-1    2.015265119667843E-1
 7.695000000000000E8    -7.435242713795871E-1    2.122702051607281E-1
 7.715000000000000E8    -7.351659545632131E-1    2.227540207108525E-1
 7.735000000000000E8    -7.270077261345682E-1    2.329681848616198E-1
 7.755000000000000E8    -7.183618687421934E-1    2.429508134991259E-1
 7.775000000000000E8    -7.096836357556711E-1    2.527072756896344E-1
 7.795000000000000E8    -7.008356778078659E-1    2.627837569180144E-1
 7.815000000000000E8    -6.897862729746429E-1    2.729206049142617E-1
 7.835000000000000E8    -6.785770428201625E-1    2.821009955505342E-1
 7.855000000000000E8    -6.675155069433363E-1    2.905952402308608E-1
 7.875000000000000E8    -6.565565013100574E-1    2.986895402653491E-1
 7.895000000000000E8    -6.445773414137944E-1    3.077674146223152E-1
 7.915000000000000E8    -6.333568263529882E-1    3.145370842362526E-1
 7.935000000000000E8    -6.237628423473597E-1    3.219792154304524E-1
 7.955000000000000E8    -6.128857510050518E-1    3.316953329214396E-1
 7.975000000000000E8    -6.007148019884493E-1    3.398535412605886E-1
 7.995000000000000E8    -5.884850889253380E-1    3.479904367481595E-1
 8.015000000000000E8    -5.767552032402765E-1    3.563360514796237E-1
 8.035000000000000E8    -5.636215639207933E-1    3.660621147043589E-1
 8.055000000000000E8    -5.502271273549599E-1    3.743853313274716E-1
 8.075000000000000E8    -5.369067060843445E-1    3.836119119589836E-1
 8.095000000000000E8    -5.220458810897435E-1    3.926324392748540E-1
 8.115000000000000E8    -5.060656383706668E-1    4.024905119894078E-1
 8.135000000000000E8    -4.881245370285767E-1    4.125819861453296E-1
 8.155000000000000E8    -4.700892168699304E-1    4.193974842963673E-1
 8.175000000000000E8    -4.509764119139180E-1    4.259965785858838E-1
 8.195000000000000E8    -4.324006107611187E-1    4.329000748332417E-1
 8.215000000000000E8    -4.124814041879761E-1    4.412095345462272E-1
 8.235000000000000E8    -3.898643782992019E-1    4.488595851221790E-1
 8.255000000000000E8    -3.651969985454179E-1    4.550713629670560E-1
 8.275000000000000E8    -3.391373113081580E-1    4.596910292713317E-1
 8.295000000000000E8    -3.113283745739855E-1    4.613423728967929E-1
 8.315000000000000E8    -2.829506094250608E-1    4.609699676352011E-1
 8.335000000000000E8    -2.543523582859960E-1    4.595965531213639E-1
 8.355000000000000E8    -2.247785943943352E-1    4.553779518105471E-1
 8.375000000000000E8    -1.948590168082432E-1    4.486400213414538E-1
 8.395000000000000E8    -1.657176617441161E-1    4.394161645513443E-1
 8.415000000000000E8    -1.360917921277654E-1    4.283248138285883E-1
 8.435000000000000E8    -1.066268049909353E-1    4.146831574996069E-1
 8.455000000000000E8    -7.895587773859385E-2    3.970730936031622E-1
 8.475000000000000E8    -5.332559541215583E-2    3.775722178183053E-1
 8.495000000000000E8    -2.980496651415106E-2    3.568740105970519E-1
 8.515000000000000E8    -8.364262076487453E-3    3.360311778147835E-1
 8.535000000000000E8     1.327616409639427E-2    3.145161128865611E-1
 8.555000000000000E8     3.455553000520106E-2    2.912801351333538E-1
 8.575000000000000E8     5.366997816640988E-2    2.659924721786611E-1
 8.595000000000000E8     7.149451347820440E-2    2.401663677103805E-1
 8.615000000000000E8     8.796271407129024E-2    2.126055724606912E-1
 8.635000000000000E8     1.042725551345938E-1    1.838693457094186E-1
 8.655000000000000E8     1.183191996374222E-1    1.531050621801493E-1
 8.675000000000000E8     1.303120194309029E-1    1.193590331125519E-1
 8.695000000000000E8     1.386216820671413E-1    8.353264066914562E-2
 8.715000000000000E8     1.415717811273991E-1    4.740272685730883E-2
 8.735000000000000E8     1.414430639089573E-1    1.415709740639093E-2
 8.755000000000000E8     1.400345288242653E-1   -1.814254134771035E-2
 8.775000000000000E8     1.363505620948491E-1   -5.083323857457981E-2
 8.795000000000000E8     1.289673747362123E-1   -8.064116275407580E-2
 8.815000000000000E8     1.227267270953164E-1   -1.073384009293473E-1
 8.835000000000000E8     1.170645537094068E-1   -1.346714646472175E-1
 8.855000000000000E8     1.109356326659272E-1   -1.622509424236499E-1
 8.875000000000000E8     1.051749802240995E-1   -1.913893287318377E-1
 8.895000000000000E8     9.612906581547177E-2   -2.229158112094841E-1
 8.915000000000000E8     8.273561790559253E-2   -2.541581160873585E-1
 8.935000000000000E8     6.675966280079394E-2   -2.841020751237596E-1
 8.955000000000000E8     4.698782728036896E-2   -3.126178755914660E-1
 8.975000000000000E8     2.510788460644411E-2   -3.382437618825270E-1
 8.995000000000000E8     2.204120674301673E-3   -3.612765331910507E-1
 9.015000000000000E8    -2.110905525678810E-2   -3.828287175678713E-1
 9.035000000000000E8    -4.642926268311316E-2   -4.030193289414724E-1
 9.055000000000000E8    -7.371076875512166E-2   -4.196158169914243E-1
 9.075000000000000E8    -1.015706848691559E-1   -4.336271616575972E-1
 9.095000000000000E8    -1.302875344367323E-1   -4.446067833150905E-1
 9.115000000000000E8    -1.585239241767871E-1   -4.521937995504521E-1
 9.135000000000000E8    -1.845653073718486E-1   -4.560497089010038E-1
 9.155000000000000E8    -2.081710009591790E-1   -4.588846099701132E-1
 9.175000000000000E8    -2.303537664724042E-1   -4.617369917105547E-1
 9.195000000000000E8    -2.520712696319574E-1   -4.644393958662798E-1
 9.215000000000000E8    -2.730272790982355E-1   -4.658865790787610E-1
 9.235000000000000E8    -2.926738879813478E-1   -4.673672595889187E-1
 9.255000000000000E8    -3.132795175340812E-1   -4.690670387143258E-1
 9.275000000000000E8    -3.335232562321338E-1   -4.688087419068918E-1
 9.295000000000000E8    -3.527551646626480E-1   -4.684810701345826E-1
 9.315000000000000E8    -3.712723250844577E-1   -4.683683243521567E-1
 9.335000000000000E8    -3.902933542725359E-1   -4.680283274739414E-1
 9.355000000000000E8    -4.086884475131300E-1   -4.670291181144811E-1
 9.375000000000000E8    -4.267030480079792E-1   -4.656645440628012E-1
 9.395000000000000E8    -4.449652113798197E-1   -4.635512929895508E-1
 9.415000000000000E8    -4.627220788259253E-1   -4.611863371359805E-1
 9.435000000000000E8    -4.799884213040844E-1   -4.579260472374496E-1
 9.455000000000000E8    -4.969505902087676E-1   -4.561794726612672E-1
 9.475000000000000E8    -5.157506646493635E-1   -4.529319092982785E-1
 9.495000000000000E8    -5.339726118439094E-1   -4.476603707673877E-1
 9.515000000000000E8    -5.514884411689045E-1   -4.415783386942561E-1
 9.535000000000000E8    -5.684800026382183E-1   -4.349305260865219E-1
 9.555000000000000E8    -5.843391416559547E-1   -4.282474111186707E-1
 9.575000000000000E8    -6.003422082780690E-1   -4.208295730953385E-1
 9.595000000000000E8    -6.152960708127891E-1   -4.128611780230900E-1
 9.615000000000000E8    -6.303770359907711E-1   -4.054920606273890E-1
 9.635000000000000E8    -6.449624575993143E-1   -3.976946362831639E-1
 9.655000000000000E8    -6.600530284189151E-1   -3.901837344663860E-1
 9.675000000000000E8    -6.744763065682701E-1   -3.811158148600636E-1
 9.695000000000000E8    -6.887628506946878E-1   -3.723336763896273E-1
 9.715000000000000E8    -7.029808546800420E-1   -3.624255505345331E-1
 9.735000000000000E8    -7.164483190174208E-1   -3.522074651541730E-1
 9.755000000000000E8    -7.293831111069988E-1   -3.402820064137438E-1
 9.775000000000000E8    -7.413849513857973E-1   -3.287540570182086E-1
 9.795000000000000E8    -7.528804103519237E-1   -3.177374022563722E-1
 9.815000000000000E8    -7.633460361334705E-1   -3.050278637338607E-1
 9.835000000000000E8    -7.749178301537070E-1   -2.929094561847976E-1
 9.855000000000000E8    -7.841890807837444E-1   -2.801363681335758E-1
 9.875000000000000E8    -7.935285902415850E-1   -2.680848856128460E-1
 9.895000000000000E8    -8.012837351527526E-1   -2.542947714483301E-1
 9.915000000000000E8    -8.084112052924535E-1   -2.415528750389776E-1
 9.935000000000000E8    -8.149318181517746E-1   -2.294549041867656E-1
 9.955000000000000E8    -8.217591899533864E-1   -2.179092554773125E-1
 9.975000000000000E8    -8.285327617354193E-1   -2.069825626578014E-1
 9.995000000000000E8    -8.358084960695004E-1   -1.948525262183559E-1
 1.001500000000000E9    -8.426330182623789E-1   -1.833165014654122E-1
 1.003500000000000E9    -8.493237605698674E-1   -1.709692604515389E-1
 1.005500000000000E9    -8.542584099889331E-1   -1.582465356934309E-1
 1.007500000000000E9    -8.601381135892787E-1   -1.461102419832716E-1
 1.009500000000000E9    -8.647484184956700E-1   -1.343881275608952E-1
 1.011500000000000E9    -8.689318304804643E-1   -1.220927020487461E-1
 1.013500000000000E9    -8.733472444712011E-1   -1.115593264025088E-1
 1.015500000000000E9    -8.773838333499453E-1   -1.003063788221019E-1
 1.017500000000000E9    -8.823898148205251E-1   -8.894288565947238E-2
 1.019500000000000E9    -8.856638936596730E-1   -7.699122488948453E-2
 1.021500000000000E9    -8.890788895101539E-1   -6.503441590656976E-2
 1.023500000000000E9    -8.932558345953657E-1   -5.358677221857874E-2
 1.025500000000000E9    -8.965319632801949E-1   -4.183484074992899E-2
 1.027500000000000E9    -8.995956222448405E-1   -3.067934706709529E-2
 1.029500000000000E9    -9.021835389524272E-1   -1.900056358859110E-2
 1.031500000000000E9    -9.042026216822610E-1   -5.654446434534168E-3
 1.033500000000000E9    -9.070927550541871E-1    4.739406473610921E-3
 1.035500000000000E9    -9.081567488077418E-1    1.675452451157453E-2
 1.037500000000000E9    -9.092451216261055E-1    2.765530052061912E-2
 1.039500000000000E9    -9.103030686036717E-1    3.932784280989449E-2
 1.041500000000000E9    -9.110424057801085E-1    5.047380601418246E-2
 1.043500000000000E9    -9.120604027199926E-1    6.222706280304313E-2
 1.045500000000000E9    -9.119099085050550E-1    7.363147526696993E-2
 1.047500000000000E9    -9.119383767106735E-1    8.543355489651663E-2
 1.049500000000000E9    -9.116850647512252E-1    9.623334907258421E-2
 1.051500000000000E9    -9.119164553373734E-1    1.067361538909398E-1
 1.053500000000000E9    -9.113836078029475E-1    1.175477387519032E-1
 1.055500000000000E9    -9.109137163375430E-1    1.281068044136127E-1
 1.057500000000000E9    -9.107089509470414E-1    1.389985738656419E-1
 1.059500000000000E9    -9.096587856815513E-1    1.495373386382871E-1
 1.061500000000000E9    -9.095741684243393E-1    1.595164566264769E-1
 1.063500000000000E9    -9.090903569136785E-1    1.696436667831693E-1
 1.065500000000000E9    -9.079238684935160E-1    1.804847217738815E-1
 1.067500000000000E9    -9.065077300608251E-1    1.900460243489051E-1
 1.069500000000000E9    -9.042302641912476E-1    2.010229556340867E-1
