#  HZ   S   RI   R     50.00 
! Rohde & Schwarz Vector Network Analyzer 
! Rohde-Schwarz,ZNB8-2Port,1311601042102944,2.30
! Created: UTC 3/16/2026, 1:08:19 PM
! freq[Hz]                re:S22                  im:S22
 6.695000000000000E8    -8.174120811337667E-1   -3.715701037621210E-1
 6.715000000000000E8    -8.220991056747974E-1   -3.634913441644789E-1
 6.735000000000000E8    -8.251775537856744E-1   -3.546892358630610E-1
 6.755000000000000E8    -8.298140418277219E-1   -3.450029553694123E-1
 6.775000000000000E8    -8.325492165404667E-1   -3.355646431583214E-1
 6.795000000000000E8    -8.357757187016125E-1   -3.252418869339915E-1
 6.815000000000000E8    -8.374362026414687E-1   -3.151345480501021E-1
 6.835000000000000E8    -8.399315434519415E-1   -3.038830152629095E-1
 6.855000000000000E8    -8.426869981920332E-1   -2.940886429042723E-1
 6.875000000000000E8    -8.441966142503566E-1   -2.825698112826682E-1
 6.895000000000000E8    -8.449715137028077E-1   -2.723342456593096E-1
 6.915000000000000E8    -8.462098187045510E-1   -2.625247410120475E-1
 6.935000000000000E8    -8.463551732577652E-1   -2.512118988513183E-1
 6.955000000000000E8    -8.468007033644203E-1   -2.411200145739816E-1
 6.975000000000000E8    -8.468542774879120E-1   -2.307904401368151E-1
 6.995000000000000E8    -8.471576381724465E-1   -2.200988803036312E-1
 7.015000000000000E8    -8.468431419514397E-1   -2.082563875922209E-1
 7.035000000000000E8    -8.456886645312348E-1   -1.971077848354154E-1
 7.055000000000000E8    -8.436707891227756E-1   -1.878807908166181E-1
 7.075000000000000E8    -8.424537369086153E-1   -1.779903062308875E-1
 7.095000000000000E8    -8.408467839116340E-1   -1.682973694628555E-1
 7.115000000000000E8    -8.397347005681201E-1   -1.590761789882147E-1
 7.135000000000000E8    -8.382721427903593E-1   -1.492023775651623E-1
 7.155000000000000E8    -8.375188221408253E-1   -1.394150446097546E-1
 7.175000000000000E8    -8.363005360854331E-1   -1.288989087241391E-1
 7.195000000000000E8    -8.352437538305739E-1   -1.183401036225202E-1
 7.215000000000000E8    -8.330753780977767E-1   -1.087950083337836E-1
 7.235000000000000E8    -8.318160952795912E-1   -9.927316570056131E-2
 7.255000000000000E8    -8.311721498508539E-1   -8.982477690838429E-2
 7.275000000000000E8    -8.303512505780236E-1   -7.986315412598753E-2
 7.295000000000000E8    -8.289984594233887E-1   -6.906310030920457E-2
 7.315000000000000E8    -8.275242020068119E-1   -5.809339985100104E-2
 7.335000000000000E8    -8.267588865820227E-1   -4.653577559712208E-2
 7.355000000000000E8    -8.254094973711688E-1   -3.470213162443076E-2
 7.375000000000000E8    -8.231121165767531E-1   -2.251654533057015E-2
 7.395000000000000E8    -8.189863562532908E-1   -1.025433382667823E-2
 7.415000000000000E8    -8.151077294490660E-1    2.025704794999772E-3
 7.435000000000000E8    -8.114587032943441E-1    1.488685451080029E-2
 7.455000000000000E8    -8.066694737835590E-1    2.726087369414596E-2
 7.475000000000000E8    -8.014185826518937E-1    3.962597272592974E-2
 7.495000000000000E8    -7.950509447267993E-1    5.192808250308523E-2
 7.515000000000000E8    -7.885952774847068E-1    6.635621887218579E-2
 7.535000000000000E8    -7.804427325824450E-1    8.005759863657200E-2
 7.555000000000000E8    -7.733884905855926E-1    9.202767125556284E-2
 7.575000000000000E8    -7.649039210482439E-1    1.027136011573948E-1
 7.595000000000000E8    -7.562055909268106E-1    1.114825630072914E-1
 7.615000000000000E8    -7.474229261319585E-1    1.183532494423045E-1
 7.635000000000000E8    -7.387421974026550E-1    1.252001929934295E-1
 7.655000000000000E8    -7.301209001460004E-1    1.337872727444504E-1
 7.675000000000000E8    -7.215216375842645E-1    1.437588977198462E-1
 7.695000000000000E8    -7.113884772588328E-1    1.550505896490266E-1
 7.715000000000000E8    -7.012186861372555E-1    1.643352539942515E-1
 7.735000000000000E8    -6.907560003097968E-1    1.734995064563630E-1
 7.755000000000000E8    -6.799440512296511E-1    1.814796701260300E-1
 7.775000000000000E8    -6.693951632643901E-1    1.894131753216295E-1
 7.795000000000000E8    -6.584183379898779E-1    1.962688715408001E-1
 7.815000000000000E8    -6.459684213695034E-1    2.033125291252373E-1
 7.835000000000000E8    -6.332126798630926E-1    2.098205552804620E-1
 7.855000000000000E8    -6.202254538509221E-1    2.143679363848776E-1
 7.875000000000000E8    -6.081119679551084E-1    2.191719161002808E-1
 7.895000000000000E8    -5.955795360605199E-1    2.225631571539461E-1
 7.915000000000000E8    -5.837795658458709E-1    2.245003085527819E-1
 7.935000000000000E8    -5.760259250935255E-1    2.276096123230027E-1
 7.955000000000000E8    -5.661752182628236E-1    2.325859294180760E-1
 7.975000000000000E8    -5.546530113299970E-1    2.368799166214019E-1
 7.995000000000000E8    -5.444783285150961E-1    2.418909679849999E-1
 8.015000000000000E8    -5.335896172229484E-1    2.465921236426237E-1
 8.035000000000000E8    -5.215372483358349E-1    2.514986736182843E-1
 8.055000000000000E8    -5.092556930219282E-1    2.564514078461875E-1
 8.075000000000000E8    -4.978174287468740E-1    2.601900076336654E-1
 8.095000000000000E8    -4.841179807201062E-1    2.650406732865069E-1
 8.115000000000000E8    -4.702062573516325E-1    2.693640156887637E-1
 8.135000000000000E8    -4.553911793103657E-1    2.725111694571487E-1
 8.155000000000000E8    -4.403095082992646E-1    2.752297604416810E-1
 8.175000000000000E8    -4.242906184227364E-1    2.768011751081654E-1
 8.195000000000000E8    -4.091728445095019E-1    2.768188947595461E-1
 8.215000000000000E8    -3.941532060809804E-1    2.761947387801882E-1
 8.235000000000000E8    -3.803296891140444E-1    2.750515277036535E-1
 8.255000000000000E8    -3.661534304914056E-1    2.745205697833691E-1
 8.275000000000000E8    -3.523609766073456E-1    2.745758483606899E-1
 8.295000000000000E8    -3.383683710766292E-1    2.750442878841358E-1
 8.315000000000000E8    -3.230874641264848E-1    2.755832812288716E-1
 8.335000000000000E8    -3.065385787324194E-1    2.774271916203819E-1
 8.355000000000000E8    -2.860677612972969E-1    2.784955802235466E-1
 8.375000000000000E8    -2.647557281078791E-1    2.759325009357274E-1
 8.395000000000000E8    -2.421476698385021E-1    2.706669042728273E-1
 8.415000000000000E8    -2.204881858279514E-1    2.622888013159176E-1
 8.435000000000000E8    -2.004952093845524E-1    2.523022107025835E-1
 8.455000000000000E8    -1.825857585296392E-1    2.411485975271659E-1
 8.475000000000000E8    -1.649637333008892E-1    2.295109333331728E-1
 8.495000000000000E8    -1.488024035868763E-1    2.175270972094160E-1
 8.515000000000000E8    -1.329861158955524E-1    2.061202177636693E-1
 8.535000000000000E8    -1.161147080390361E-1    1.943125770916155E-1
 8.555000000000000E8    -9.821008764419950E-2    1.825821744168253E-1
 8.575000000000000E8    -7.887931570032657E-2    1.696960102218772E-1
 8.595000000000000E8    -5.818505430732324E-2    1.523651646347891E-1
 8.615000000000000E8    -3.978437004227449E-2    1.311921316109787E-1
 8.635000000000000E8    -2.362884177663499E-2    1.090170796094703E-1
 8.655000000000000E8    -9.870358725194265E-3    8.631348923439317E-2
 8.675000000000000E8     4.457888393171779E-3    6.264695774681652E-2
 8.695000000000000E8     1.781206237539553E-2    3.654134814422502E-2
 8.715000000000000E8     2.852417348895489E-2    7.402726215851723E-3
 8.735000000000000E8     3.575568263474047E-2   -2.287130490577678E-2
 8.755000000000000E8     3.937413169668175E-2   -5.307148880977978E-2
 8.775000000000000E8     4.058750340161951E-2   -8.125429965722376E-2
 8.795000000000000E8     4.188091058755546E-2   -1.079658695634424E-1
 8.815000000000000E8     4.378752145224635E-2   -1.347052416328939E-1
 8.835000000000000E8     4.689116215004759E-2   -1.637756042969625E-1
 8.855000000000000E8     4.818257128736866E-2   -1.974517786072556E-1
 8.875000000000000E8     4.449921058993447E-2   -2.326595023152184E-1
 8.895000000000000E8     3.768234615202618E-2   -2.695106069648909E-1
 8.915000000000000E8     2.470876992792633E-2   -3.064631031074570E-1
 8.935000000000000E8     7.183270972243108E-3   -3.422464378047962E-1
 8.955000000000000E8    -1.451853511996033E-2   -3.752090123464338E-1
 8.975000000000000E8    -4.012926098990064E-2   -4.039641313078187E-1
 8.995000000000000E8    -6.791356239739498E-2   -4.293312636602530E-1
 9.015000000000000E8    -9.621528194521968E-2   -4.519153689203381E-1
 9.035000000000000E8    -1.260923296553640E-1   -4.711721038443508E-1
 9.055000000000000E8    -1.568229948391802E-1   -4.856399109922596E-1
 9.075000000000000E8    -1.874598529813538E-1   -4.976861052441114E-1
 9.095000000000000E8    -2.171148365983792E-1   -5.059964015114156E-1
 9.115000000000000E8    -2.457425452510910E-1   -5.120342338261803E-1
 9.135000000000000E8    -2.717260340961628E-1   -5.168825973862942E-1
 9.155000000000000E8    -2.976854897405851E-1   -5.211269686038789E-1
 9.175000000000000E8    -3.242507135155807E-1   -5.235037581054189E-1
 9.195000000000000E8    -3.497656391963946E-1   -5.243621332229168E-1
 9.215000000000000E8    -3.740784639350476E-1   -5.238018439405204E-1
 9.235000000000000E8    -3.979806091493376E-1   -5.219833388964424E-1
 9.255000000000000E8    -4.205132700158843E-1   -5.200874368007309E-1
 9.275000000000000E8    -4.425694737241506E-1   -5.163877247929373E-1
 9.295000000000000E8    -4.629199068700762E-1   -5.134411825979868E-1
 9.315000000000000E8    -4.830820340326010E-1   -5.101138530265170E-1
 9.335000000000000E8    -5.032972265705688E-1   -5.062099515950670E-1
 9.355000000000000E8    -5.234685990833988E-1   -5.020725073473079E-1
 9.375000000000000E8    -5.439657715582020E-1   -4.961796815510471E-1
 9.395000000000000E8    -5.624662402237558E-1   -4.906993090148880E-1
 9.415000000000000E8    -5.813546379006859E-1   -4.833300150748947E-1
 9.435000000000000E8    -5.987074438583251E-1   -4.754607758093194E-1
 9.455000000000000E8    -6.152618658310382E-1   -4.679437985198487E-1
 9.475000000000000E8    -6.322814670561264E-1   -4.595456668489583E-1
 9.495000000000000E8    -6.474771946545685E-1   -4.505320046808140E-1
 9.515000000000000E8    -6.624404968526213E-1   -4.418675393143437E-1
 9.535000000000000E8    -6.770551143901830E-1   -4.327217614892880E-1
 9.555000000000000E8    -6.914289829432589E-1   -4.222045818762217E-1
 9.575000000000000E8    -7.050221605431158E-1   -4.119287873653407E-1
 9.595000000000000E8    -7.179153811327309E-1   -4.022562816641191E-1
 9.615000000000000E8    -7.300856777589626E-1   -3.923003016081741E-1
 9.635000000000000E8    -7.428293905431672E-1   -3.824679188766896E-1
 9.655000000000000E8    -7.561058880868086E-1   -3.729321552335499E-1
 9.675000000000000E8    -7.683772377968884E-1   -3.625622555940256E-1
 9.695000000000000E8    -7.811602817580691E-1   -3.515679880040937E-1
 9.715000000000000E8    -7.920897212797738E-1   -3.394804265842396E-1
 9.735000000000000E8    -8.032309746578609E-1   -3.275864958505537E-1
 9.755000000000000E8    -8.134333499068948E-1   -3.158829508619471E-1
 9.775000000000000E8    -8.228260109911458E-1   -3.019978076621364E-1
 9.795000000000000E8    -8.315233521585467E-1   -2.901349229915962E-1
 9.815000000000000E8    -8.397399807658399E-1   -2.769800287873356E-1
 9.835000000000000E8    -8.472397715748368E-1   -2.647556151842752E-1
 9.855000000000000E8    -8.541683819609435E-1   -2.525142531742378E-1
 9.875000000000000E8    -8.615542135506630E-1   -2.397621971754874E-1
 9.895000000000000E8    -8.687802726883392E-1   -2.273143732998965E-1
 9.915000000000000E8    -8.741412703555098E-1   -2.134538705251889E-1
 9.935000000000000E8    -8.796063840187839E-1   -2.017941443905138E-1
 9.955000000000000E8    -8.849790018124555E-1   -1.899831588659742E-1
 9.975000000000000E8    -8.890379643095006E-1   -1.784839112309426E-1
 9.995000000000000E8    -8.943494957773072E-1   -1.656863224995226E-1
 1.001500000000000E9    -8.989366535388401E-1   -1.546124902996815E-1
 1.003500000000000E9    -9.040734653250160E-1   -1.424174437900268E-1
 1.005500000000000E9    -9.083944225351304E-1   -1.305238826454198E-1
 1.007500000000000E9    -9.122159136278278E-1   -1.188552843641242E-1
 1.009500000000000E9    -9.149662512739301E-1   -1.074027107125583E-1
 1.011500000000000E9    -9.180627600125355E-1   -9.571519215271819E-2
 1.013500000000000E9    -9.205984605627887E-1   -8.486468906901590E-2
 1.015500000000000E9    -9.227315216755110E-1   -7.402802126859083E-2
 1.017500000000000E9    -9.254323012526460E-1   -6.298090713163203E-2
 1.019500000000000E9    -9.275484782984216E-1   -5.227471122369014E-2
 1.021500000000000E9    -9.308440949000221E-1   -4.147974636267931E-2
 1.023500000000000E9    -9.323905092782097E-1   -3.072738271549904E-2
 1.025500000000000E9    -9.351862843826726E-1   -1.994730481398984E-2
 1.027500000000000E9    -9.373467121563104E-1   -9.147788675155134E-3
 1.029500000000000E9    -9.390923544115883E-1    1.156251608462564E-3
 1.031500000000000E9    -9.405874549495285E-1    1.226508408501530E-2
 1.033500000000000E9    -9.422953265704650E-1    2.339368311761389E-2
 1.035500000000000E9    -9.435425787849281E-1    3.418540427499786E-2
 1.037500000000000E9    -9.444323090922582E-1    4.485937990015156E-2
 1.039500000000000E9    -9.450793434398493E-1    5.451061312240604E-2
 1.041500000000000E9    -9.459072448466943E-1    6.496663981197044E-2
 1.043500000000000E9    -9.466479604574245E-1    7.631258568778106E-2
 1.045500000000000E9    -9.464916281844565E-1    8.689973948815463E-2
 1.047500000000000E9    -9.461666959817217E-1    9.734004817132301E-2
 1.049500000000000E9    -9.457859093878863E-1    1.078159098315974E-1
 1.051500000000000E9    -9.461740939118798E-1    1.180984540919939E-1
 1.053500000000000E9    -9.463410225459832E-1    1.284412584639250E-1
 1.055500000000000E9    -9.453031920349290E-1    1.384331710159847E-1
 1.057500000000000E9    -9.447304897636446E-1    1.481798278818449E-1
 1.059500000000000E9    -9.434096979957153E-1    1.581520481324933E-1
 1.061500000000000E9    -9.430972008695043E-1    1.676508397368985E-1
 1.063500000000000E9    -9.429216995331256E-1    1.775438310082396E-1
 1.065500000000000E9    -9.418866465120945E-1    1.879120006528137E-1
 1.067500000000000E9    -9.408294702986954E-1    1.971294153803501E-1
 1.069500000000000E9    -9.392800651357997E-1    2.065656770757704E-1
