#  HZ   S   RI   R     50.00 
! Rohde & Schwarz Vector Network Analyzer 
! Rohde-Schwarz,ZNB8-2Port,1311601042102944,2.30
! Created: UTC 3/16/2026, 1:10:54 PM
! freq[Hz]                re:S22                  im:S22
 6.695000000000000E8     7.083280255716390E-1    4.113187038760857E-1
 6.715000000000000E8     7.207437721372689E-1    3.885116481130038E-1
 6.735000000000000E8     7.319564055344966E-1    3.638574060091269E-1
 6.755000000000000E8     7.426141032245492E-1    3.400564692779280E-1
 6.775000000000000E8     7.516726477366887E-1    3.150859634004576E-1
 6.795000000000000E8     7.594578937965614E-1    2.898940097498550E-1
 6.815000000000000E8     7.667950410012844E-1    2.655399178714420E-1
 6.835000000000000E8     7.727470933735784E-1    2.406026682033649E-1
 6.855000000000000E8     7.778680678019775E-1    2.154135235316885E-1
 6.875000000000000E8     7.820669590161257E-1    1.904186348847281E-1
 6.895000000000000E8     7.855919157499546E-1    1.651591823303672E-1
 6.915000000000000E8     7.868493039184888E-1    1.411082464331526E-1
 6.935000000000000E8     7.886795275303493E-1    1.175292184240273E-1
 6.955000000000000E8     7.905659197553511E-1    9.345376900437900E-2
 6.975000000000000E8     7.913997990570251E-1    6.861680373622947E-2
 6.995000000000000E8     7.906945117816572E-1    4.359644834670254E-2
 7.015000000000000E8     7.883704136602130E-1    1.895167026079704E-2
 7.035000000000000E8     7.851100634000785E-1   -4.299597365124079E-3
 7.055000000000000E8     7.820773290924066E-1   -2.668457814642160E-2
 7.075000000000000E8     7.784617903001369E-1   -4.959105704637848E-2
 7.095000000000000E8     7.745463811806478E-1   -7.179071723530853E-2
 7.115000000000000E8     7.706103312419169E-1   -9.425010447950152E-2
 7.135000000000000E8     7.665124174125527E-1   -1.164434153889329E-1
 7.155000000000000E8     7.622321480070984E-1   -1.401095801548539E-1
 7.175000000000000E8     7.555374285226223E-1   -1.636172723451104E-1
 7.195000000000000E8     7.480260978136885E-1   -1.879541089995430E-1
 7.215000000000000E8     7.387276102211370E-1   -2.100018551912580E-1
 7.235000000000000E8     7.297709636673562E-1   -2.309368380798133E-1
 7.255000000000000E8     7.206939374526176E-1   -2.524256020071697E-1
 7.275000000000000E8     7.109144373810925E-1   -2.727720654547917E-1
 7.295000000000000E8     7.007762129521351E-1   -2.935628185662247E-1
 7.315000000000000E8     6.901648913524716E-1   -3.142120638722554E-1
 7.335000000000000E8     6.788836268121494E-1   -3.361069763551276E-1
 7.355000000000000E8     6.643846983418845E-1   -3.573807525551289E-1
 7.375000000000000E8     6.500850212750453E-1   -3.764243839150462E-1
 7.395000000000000E8     6.347974356377595E-1   -3.945712125054953E-1
 7.415000000000000E8     6.188334321284971E-1   -4.125438969593106E-1
 7.435000000000000E8     6.022873681506118E-1   -4.293467344644947E-1
 7.455000000000000E8     5.851347824090933E-1   -4.456497686509138E-1
 7.475000000000000E8     5.676981055025725E-1   -4.605082476630573E-1
 7.495000000000000E8     5.501784594165925E-1   -4.734721636521543E-1
 7.515000000000000E8     5.321262272785839E-1   -4.871844622760930E-1
 7.535000000000000E8     5.143702913518869E-1   -5.001520372557224E-1
 7.555000000000000E8     4.984265492716314E-1   -5.134097999461635E-1
 7.575000000000000E8     4.817742293817015E-1   -5.263029796808847E-1
 7.595000000000000E8     4.639571793541472E-1   -5.380321022192248E-1
 7.615000000000000E8     4.476640556250177E-1   -5.469252050394770E-1
 7.635000000000000E8     4.311134878619822E-1   -5.556956741055298E-1
 7.655000000000000E8     4.140171154693882E-1   -5.659318611002624E-1
 7.675000000000000E8     3.946762126875404E-1   -5.769508332267908E-1
 7.695000000000000E8     3.739152460523671E-1   -5.870973620542099E-1
 7.715000000000000E8     3.537390321644675E-1   -5.969891292044989E-1
 7.735000000000000E8     3.325292161907497E-1   -6.063300466720898E-1
 7.755000000000000E8     3.111209858819055E-1   -6.152886942602164E-1
 7.775000000000000E8     2.883632899859917E-1   -6.221541782654450E-1
 7.795000000000000E8     2.656116719068903E-1   -6.281361980149632E-1
 7.815000000000000E8     2.417551589601365E-1   -6.327695738499285E-1
 7.835000000000000E8     2.175239683182864E-1   -6.354514570592770E-1
 7.855000000000000E8     1.939799109795243E-1   -6.370170961024095E-1
 7.875000000000000E8     1.700871693356724E-1   -6.384960392280155E-1
 7.895000000000000E8     1.471965371116963E-1   -6.387133721804682E-1
 7.915000000000000E8     1.223314148034050E-1   -6.379074228429795E-1
 7.935000000000000E8     9.564975586559361E-2   -6.354263055475427E-1
 7.955000000000000E8     7.094747530664319E-2   -6.285849502665859E-1
 7.975000000000000E8     4.923180597054847E-2   -6.242450295037612E-1
 7.995000000000000E8     2.540289837564246E-2   -6.187399958078294E-1
 8.015000000000000E8     1.158487026673819E-3   -6.109128381541775E-1
 8.035000000000000E8    -2.281027531093146E-2   -6.022148345217075E-1
 8.055000000000000E8    -4.736499686244310E-2   -5.921147348383724E-1
 8.075000000000000E8    -7.146070163888817E-2   -5.791635155537631E-1
 8.095000000000000E8    -9.464488276483470E-2   -5.638487452205868E-1
 8.115000000000000E8    -1.160301501049170E-1   -5.475242347750590E-1
 8.135000000000000E8    -1.374590440796420E-1   -5.299108960383320E-1
 8.155000000000000E8    -1.587409252502123E-1   -5.087706429750931E-1
 8.175000000000000E8    -1.778439604771885E-1   -4.837285484678842E-1
 8.195000000000000E8    -1.916347899854523E-1   -4.564362232736909E-1
 8.215000000000000E8    -2.003652410099307E-1   -4.294658007412541E-1
 8.235000000000000E8    -2.046465000650988E-1   -4.025017907509099E-1
 8.255000000000000E8    -2.099989694615733E-1   -3.821059625808362E-1
 8.275000000000000E8    -2.170002585690135E-1   -3.578446348537808E-1
 8.295000000000000E8    -2.205226667530621E-1   -3.311709793393607E-1
 8.315000000000000E8    -2.209253027877760E-1   -3.057816386349352E-1
 8.335000000000000E8    -2.186293991303438E-1   -2.788877838181310E-1
 8.355000000000000E8    -2.134547404282321E-1   -2.542063407343942E-1
 8.375000000000000E8    -2.066445860169534E-1   -2.298849945311384E-1
 8.395000000000000E8    -1.973863479038596E-1   -2.067850464102039E-1
 8.415000000000000E8    -1.854088495510232E-1   -1.836454600852640E-1
 8.435000000000000E8    -1.696184009815201E-1   -1.629627683104195E-1
 8.455000000000000E8    -1.513425909358333E-1   -1.457302746213371E-1
 8.475000000000000E8    -1.325556452933330E-1   -1.307299905326850E-1
 8.495000000000000E8    -1.121102873678556E-1   -1.180287800319970E-1
 8.515000000000000E8    -8.944969177488490E-2   -1.102446409882902E-1
 8.535000000000000E8    -6.965701006261488E-2   -1.069487112557855E-1
 8.555000000000000E8    -5.197655563573657E-2   -1.050102451486326E-1
 8.575000000000000E8    -3.508072353915905E-2   -1.027537154954470E-1
 8.595000000000000E8    -1.732175697140751E-2   -1.018421686254054E-1
 8.615000000000000E8    -8.165564093443777E-4   -1.038476049998422E-1
 8.635000000000000E8     1.355897936743855E-2   -1.056102073484372E-1
 8.655000000000000E8     2.845247507785726E-2   -1.071491341615990E-1
 8.675000000000000E8     4.363598493475074E-2   -1.080101130817291E-1
 8.695000000000000E8     6.325913000096889E-2   -1.103981107882909E-1
 8.715000000000000E8     8.283998796312563E-2   -1.174141719738394E-1
 8.735000000000000E8     1.026630940810777E-1   -1.277106283073061E-1
 8.755000000000000E8     1.209193418754469E-1   -1.425704629244455E-1
 8.775000000000000E8     1.375899207183191E-1   -1.613919844540706E-1
 8.795000000000000E8     1.470107005650462E-1   -1.848410905934971E-1
 8.815000000000000E8     1.501158006739765E-1   -2.070405542388009E-1
 8.835000000000000E8     1.503490042986150E-1   -2.251391902897275E-1
 8.855000000000000E8     1.493449509565582E-1   -2.415180290524380E-1
 8.875000000000000E8     1.458618790798806E-1   -2.564254631156821E-1
 8.895000000000000E8     1.419592948644884E-1   -2.685346740383898E-1
 8.915000000000000E8     1.386715624035656E-1   -2.782448570974927E-1
 8.935000000000000E8     1.378257093369820E-1   -2.869659730303523E-1
 8.955000000000000E8     1.379442622093574E-1   -2.966765229168346E-1
 8.975000000000000E8     1.390484040480842E-1   -3.085533818553516E-1
 8.995000000000000E8     1.381988805549511E-1   -3.222376386545478E-1
 9.015000000000000E8     1.353237388858303E-1   -3.358503362227381E-1
 9.035000000000000E8     1.307873459083478E-1   -3.497361729389092E-1
 9.055000000000000E8     1.242159792821050E-1   -3.612659853204221E-1
 9.075000000000000E8     1.180827324128731E-1   -3.712729103703986E-1
 9.095000000000000E8     1.129543496085289E-1   -3.809628952374112E-1
 9.115000000000000E8     1.087229879188883E-1   -3.922561348897921E-1
 9.135000000000000E8     1.021442431361877E-1   -4.049456644334987E-1
 9.155000000000000E8     9.421099245478629E-2   -4.159223615154372E-1
 9.175000000000000E8     8.578582960402061E-2   -4.267293669050764E-1
 9.195000000000000E8     7.628377648963483E-2   -4.377231704120946E-1
 9.215000000000000E8     6.443664371002511E-2   -4.493596145549734E-1
 9.235000000000000E8     5.083199382968019E-2   -4.570908015179065E-1
 9.255000000000000E8     3.771985470254141E-2   -4.626075847374797E-1
 9.275000000000000E8     2.702093777220959E-2   -4.665800207058112E-1
 9.295000000000000E8     1.818336419314048E-2   -4.719608742578926E-1
 9.315000000000000E8     7.753504629400756E-3   -4.789244142861445E-1
 9.335000000000000E8    -3.511462910749735E-3   -4.841529403916097E-1
 9.355000000000000E8    -1.410278513752564E-2   -4.886477362040425E-1
 9.375000000000000E8    -2.414888642437172E-2   -4.936823987115029E-1
 9.395000000000000E8    -3.515025548881515E-2   -4.990491063524257E-1
 9.415000000000000E8    -4.677551888957005E-2   -5.054170752119981E-1
 9.435000000000000E8    -6.102882046136642E-2   -5.112705121101386E-1
 9.455000000000000E8    -7.619503221901243E-2   -5.142443793359588E-1
 9.475000000000000E8    -9.104843659447856E-2   -5.132028776065657E-1
 9.495000000000000E8    -1.027025293124460E-1   -5.117883086800550E-1
 9.515000000000000E8    -1.149046927857550E-1   -5.124925923108582E-1
 9.535000000000000E8    -1.263267982859578E-1   -5.115917088908714E-1
 9.555000000000000E8    -1.382560211608140E-1   -5.103755485704153E-1
 9.575000000000000E8    -1.487329102210870E-1   -5.073323072055590E-1
 9.595000000000000E8    -1.578981561886074E-1   -5.046782105968960E-1
 9.615000000000000E8    -1.658109932641462E-1   -5.039523898657400E-1
 9.635000000000000E8    -1.748383697763869E-1   -5.047323303163279E-1
 9.655000000000000E8    -1.851168563504866E-1   -5.050582337916122E-1
 9.675000000000000E8    -1.951046019039068E-1   -5.042836917288094E-1
 9.695000000000000E8    -2.055268328355521E-1   -5.038986744196070E-1
 9.715000000000000E8    -2.161250123105683E-1   -5.026238999674262E-1
 9.735000000000000E8    -2.256911850994181E-1   -4.997398689354086E-1
 9.755000000000000E8    -2.342109680741552E-1   -4.971837299796910E-1
 9.775000000000000E8    -2.416056521868568E-1   -4.962349019847491E-1
 9.795000000000000E8    -2.511390184518564E-1   -4.971232534123081E-1
 9.815000000000000E8    -2.622249183654055E-1   -4.972390114155427E-1
 9.835000000000000E8    -2.734174455835065E-1   -4.953413550130730E-1
 9.855000000000000E8    -2.834918044221532E-1   -4.932403043462635E-1
 9.875000000000000E8    -2.941635450151994E-1   -4.910782345347145E-1
 9.895000000000000E8    -3.056065919290755E-1   -4.885660073052133E-1
 9.915000000000000E8    -3.158722844765962E-1   -4.845611022033683E-1
 9.935000000000000E8    -3.254007486019644E-1   -4.803338645688211E-1
 9.955000000000000E8    -3.346473889547972E-1   -4.778957222294110E-1
 9.975000000000000E8    -3.432776677337378E-1   -4.748976426891341E-1
 9.995000000000000E8    -3.539321622339812E-1   -4.728393210786819E-1
 1.001500000000000E9    -3.638665259214521E-1   -4.691889652174997E-1
 1.003500000000000E9    -3.738834350156332E-1   -4.661960567105518E-1
 1.005500000000000E9    -3.836679886441739E-1   -4.633168196461178E-1
 1.007500000000000E9    -3.940784281906534E-1   -4.599678910552552E-1
 1.009500000000000E9    -4.052523312742898E-1   -4.564754086030985E-1
 1.011500000000000E9    -4.161309011823766E-1   -4.520208870349264E-1
 1.013500000000000E9    -4.265848302279758E-1   -4.471279609051063E-1
 1.015500000000000E9    -4.372407425423012E-1   -4.426309938443068E-1
 1.017500000000000E9    -4.473117581892699E-1   -4.383116373939096E-1
 1.019500000000000E9    -4.585767951601452E-1   -4.320376684440077E-1
 1.021500000000000E9    -4.690290656975867E-1   -4.261982950845059E-1
 1.023500000000000E9    -4.799324532316293E-1   -4.201571115550286E-1
 1.025500000000000E9    -4.897350923033299E-1   -4.142351811221017E-1
 1.027500000000000E9    -5.007699650887194E-1   -4.078966072196527E-1
 1.029500000000000E9    -5.116267415226713E-1   -4.023523571567252E-1
 1.031500000000000E9    -5.221378011535369E-1   -3.936669575915780E-1
 1.033500000000000E9    -5.323113963604077E-1   -3.857548081234583E-1
 1.035500000000000E9    -5.420435637023693E-1   -3.781379720849052E-1
 1.037500000000000E9    -5.514691515358607E-1   -3.709093380903930E-1
 1.039500000000000E9    -5.619099534982069E-1   -3.638200104550592E-1
 1.041500000000000E9    -5.738946603151574E-1   -3.556853892810427E-1
 1.043500000000000E9    -5.853954251540100E-1   -3.454850652060245E-1
 1.045500000000000E9    -5.962391514686968E-1   -3.336400050932964E-1
 1.047500000000000E9    -6.044675637295518E-1   -3.206654479990058E-1
 1.049500000000000E9    -6.117524573042126E-1   -3.094302178422930E-1
 1.051500000000000E9    -6.192273721340967E-1   -2.988788340034744E-1
 1.053500000000000E9    -6.268929777473714E-1   -2.882675953988110E-1
 1.055500000000000E9    -6.338338548973854E-1   -2.776184136133941E-1
 1.057500000000000E9    -6.414047748873576E-1   -2.673174212426754E-1
 1.059500000000000E9    -6.488072333117674E-1   -2.570846372283354E-1
 1.061500000000000E9    -6.575446052505412E-1   -2.461080178060681E-1
 1.063500000000000E9    -6.650426184354913E-1   -2.348522895079879E-1
 1.065500000000000E9    -6.722603120107464E-1   -2.224991482352043E-1
 1.067500000000000E9    -6.794278772916330E-1   -2.102108903816427E-1
 1.069500000000000E9    -6.851989733678068E-1   -1.993306741285632E-1
