#  HZ   S   RI   R     50.00 
! Rohde & Schwarz Vector Network Analyzer 
! Rohde-Schwarz,ZNB8-2Port,1311601042102944,2.30
! Created: UTC 3/16/2026, 1:10:21 PM
! freq[Hz]                re:S22                  im:S22
 6.695000000000000E8     7.603586597789201E-1    3.130542331585410E-1
 6.715000000000000E8     7.700227849149827E-1    2.886323033554363E-1
 6.735000000000000E8     7.776069840944023E-1    2.641694523700089E-1
 6.755000000000000E8     7.855587217247155E-1    2.391816499090004E-1
 6.775000000000000E8     7.917012655655895E-1    2.137674874800644E-1
 6.795000000000000E8     7.967583080208818E-1    1.881712872434989E-1
 6.815000000000000E8     8.012424464684009E-1    1.628169374336048E-1
 6.835000000000000E8     8.046216578227340E-1    1.373292088709366E-1
 6.855000000000000E8     8.064104473415950E-1    1.115510732619770E-1
 6.875000000000000E8     8.068466427847773E-1    8.654337438817536E-2
 6.895000000000000E8     8.079352723527283E-1    6.362437548038775E-2
 6.915000000000000E8     8.091377945852961E-1    3.887900684917564E-2
 6.935000000000000E8     8.100557491941796E-1    1.400852213330342E-2
 6.955000000000000E8     8.101149163671733E-1   -1.146691781005649E-2
 6.975000000000000E8     8.082017267682140E-1   -3.785794393041068E-2
 6.995000000000000E8     8.052078550458545E-1   -6.366565397763727E-2
 7.015000000000000E8     8.016100804737607E-1   -8.940966031794574E-2
 7.035000000000000E8     7.961272412698432E-1   -1.152965675731582E-1
 7.055000000000000E8     7.898414264420960E-1   -1.394678801186869E-1
 7.075000000000000E8     7.831980688786889E-1   -1.641080076599797E-1
 7.095000000000000E8     7.756750326273830E-1   -1.890528260250508E-1
 7.115000000000000E8     7.676389308216949E-1   -2.133986485342407E-1
 7.135000000000000E8     7.586194768778741E-1   -2.366885472962571E-1
 7.155000000000000E8     7.491506535736990E-1   -2.608933351967118E-1
 7.175000000000000E8     7.388667663166674E-1   -2.853102120392978E-1
 7.195000000000000E8     7.265564345767858E-1   -3.099217310340914E-1
 7.215000000000000E8     7.122529445184176E-1   -3.321249377125910E-1
 7.235000000000000E8     6.998165606099327E-1   -3.529307160055973E-1
 7.255000000000000E8     6.861913189982478E-1   -3.746939292102527E-1
 7.275000000000000E8     6.715496637957393E-1   -3.965992600048760E-1
 7.295000000000000E8     6.560792675406997E-1   -4.185833922704226E-1
 7.315000000000000E8     6.397602000476080E-1   -4.411475875056000E-1
 7.335000000000000E8     6.198043222131289E-1   -4.634696036430482E-1
 7.355000000000000E8     5.981283894590671E-1   -4.824154638161501E-1
 7.375000000000000E8     5.749719151336520E-1   -4.989680180307460E-1
 7.395000000000000E8     5.517954371893490E-1   -5.140068853609813E-1
 7.415000000000000E8     5.288581996717987E-1   -5.263266131668500E-1
 7.435000000000000E8     5.068640938865416E-1   -5.374707911861844E-1
 7.455000000000000E8     4.852774253248905E-1   -5.470847021427350E-1
 7.475000000000000E8     4.657138874559502E-1   -5.559351960266369E-1
 7.495000000000000E8     4.462709335433043E-1   -5.665461853186647E-1
 7.515000000000000E8     4.245661627978957E-1   -5.778743435174339E-1
 7.535000000000000E8     4.004513908776134E-1   -5.888526785736494E-1
 7.555000000000000E8     3.769834550438180E-1   -5.968747457830161E-1
 7.575000000000000E8     3.553844036118491E-1   -6.030969869113920E-1
 7.595000000000000E8     3.348052083136617E-1   -6.076087306400908E-1
 7.615000000000000E8     3.158774692596359E-1   -6.117815385374724E-1
 7.635000000000000E8     2.971223026725272E-1   -6.154976760611989E-1
 7.655000000000000E8     2.770124900613211E-1   -6.214459357299025E-1
 7.675000000000000E8     2.535453072858974E-1   -6.278843604350523E-1
 7.695000000000000E8     2.278172064067303E-1   -6.327132452965654E-1
 7.715000000000000E8     2.020014185180657E-1   -6.362540558920732E-1
 7.735000000000000E8     1.757431911200945E-1   -6.374583125823613E-1
 7.755000000000000E8     1.488230318574977E-1   -6.359463106747475E-1
 7.775000000000000E8     1.229144586161923E-1   -6.324485956771433E-1
 7.795000000000000E8     9.759323112972396E-2   -6.265277826485981E-1
 7.815000000000000E8     7.342090647164483E-2   -6.185734006896966E-1
 7.835000000000000E8     5.171173729181234E-2   -6.101829518501900E-1
 7.855000000000000E8     2.895171315894774E-2   -6.017470649373231E-1
 7.875000000000000E8     6.313498919064487E-3   -5.915090819948378E-1
 7.895000000000000E8    -1.703993605757772E-2   -5.772517316306249E-1
 7.915000000000000E8    -3.512090802635001E-2   -5.590225949321412E-1
 7.935000000000000E8    -4.825185530215482E-2   -5.437523220970145E-1
 7.955000000000000E8    -6.207824847284510E-2   -5.311485626856782E-1
 7.975000000000000E8    -7.398637131041658E-2   -5.175886746525236E-1
 7.995000000000000E8    -8.517982001430209E-2   -5.045545001372264E-1
 8.015000000000000E8    -9.612220706376216E-2   -4.925860762362229E-1
 8.035000000000000E8    -1.064898944111101E-1   -4.816909732214864E-1
 8.055000000000000E8    -1.193622852261756E-1   -4.723165311302993E-1
 8.075000000000000E8    -1.344161999225718E-1   -4.608959470368336E-1
 8.095000000000000E8    -1.482750706415029E-1   -4.463706903402850E-1
 8.115000000000000E8    -1.617546748308441E-1   -4.300830031194097E-1
 8.135000000000000E8    -1.741565854279802E-1   -4.133291261065063E-1
 8.155000000000000E8    -1.846228358511850E-1   -3.932896121652877E-1
 8.175000000000000E8    -1.949992069531700E-1   -3.730131851095543E-1
 8.195000000000000E8    -2.014641656580005E-1   -3.507341394524172E-1
 8.215000000000000E8    -2.048907139119937E-1   -3.279710296296231E-1
 8.235000000000000E8    -2.035922587344312E-1   -3.045118105510323E-1
 8.255000000000000E8    -1.992445618355555E-1   -2.881242717487235E-1
 8.275000000000000E8    -1.985477869182503E-1   -2.725527342020286E-1
 8.295000000000000E8    -1.975039124704485E-1   -2.556890669249598E-1
 8.315000000000000E8    -1.950027174929953E-1   -2.385697374659881E-1
 8.335000000000000E8    -1.914363408802145E-1   -2.218931492150615E-1
 8.355000000000000E8    -1.865929321659969E-1   -2.055017131684280E-1
 8.375000000000000E8    -1.795616652072059E-1   -1.899220788365501E-1
 8.395000000000000E8    -1.721806536075563E-1   -1.770987383234833E-1
 8.415000000000000E8    -1.660198225000415E-1   -1.652449856957377E-1
 8.435000000000000E8    -1.600826474040695E-1   -1.520211944692865E-1
 8.455000000000000E8    -1.531200453159235E-1   -1.394857613606046E-1
 8.475000000000000E8    -1.473462623543030E-1   -1.266091639625087E-1
 8.495000000000000E8    -1.397503988920907E-1   -1.102955757708369E-1
 8.515000000000000E8    -1.279095098126471E-1   -9.330994617536759E-2
 8.535000000000000E8    -1.116179625942702E-1   -7.871321002826119E-2
 8.555000000000000E8    -9.326795284784607E-2   -6.754211359865169E-2
 8.575000000000000E8    -7.339784894520336E-2   -5.854729363153968E-2
 8.595000000000000E8    -5.216212939910908E-2   -5.492264057120776E-2
 8.615000000000000E8    -3.465907898106754E-2   -5.508506219844309E-2
 8.635000000000000E8    -1.969388631265163E-2   -5.473402842940047E-2
 8.655000000000000E8    -3.503379571964400E-3   -5.348187527802087E-2
 8.675000000000000E8     1.357419507621761E-2   -5.446168691835143E-2
 8.695000000000000E8     2.979986745334002E-2   -5.753481442547943E-2
 8.715000000000000E8     4.606751428103703E-2   -6.155129452451590E-2
 8.735000000000000E8     6.290780092284920E-2   -6.843744796081176E-2
 8.755000000000000E8     7.693814528995364E-2   -7.876759114923800E-2
 8.775000000000000E8     8.798232614645189E-2   -8.793284333090651E-2
 8.795000000000000E8     9.706677689492084E-2   -9.783184565332147E-2
 8.815000000000000E8     1.044201730690301E-1   -1.059865453008815E-1
 8.835000000000000E8     1.128687859303425E-1   -1.121266361449898E-1
 8.855000000000000E8     1.226827251580522E-1   -1.177394148120124E-1
 8.875000000000000E8     1.341772133799580E-1   -1.253630752430240E-1
 8.895000000000000E8     1.466086405705634E-1   -1.357304490233533E-1
 8.915000000000000E8     1.574882030341483E-1   -1.474238826740288E-1
 8.935000000000000E8     1.683048673491970E-1   -1.612936620673577E-1
 8.955000000000000E8     1.774227524603440E-1   -1.774253625578026E-1
 8.975000000000000E8     1.827685606909734E-1   -1.952635698260443E-1
 8.995000000000000E8     1.856831042745275E-1   -2.114934054928772E-1
 9.015000000000000E8     1.886615026928226E-1   -2.265705980643829E-1
 9.035000000000000E8     1.908807675849666E-1   -2.419769517194088E-1
 9.055000000000000E8     1.931215829564918E-1   -2.583078988533312E-1
 9.075000000000000E8     1.934172921417055E-1   -2.757967929512112E-1
 9.095000000000000E8     1.916826111580322E-1   -2.947317538882163E-1
 9.115000000000000E8     1.868683061144615E-1   -3.118833448766680E-1
 9.135000000000000E8     1.805222943342696E-1   -3.269279374565967E-1
 9.155000000000000E8     1.756060871376837E-1   -3.408207442719307E-1
 9.175000000000000E8     1.693483480548064E-1   -3.551929761049662E-1
 9.195000000000000E8     1.621632476379567E-1   -3.698462431248294E-1
 9.215000000000000E8     1.540983454708370E-1   -3.837201529610335E-1
 9.235000000000000E8     1.429830101748345E-1   -3.971916388774685E-1
 9.255000000000000E8     1.317398549231869E-1   -4.073891686990371E-1
 9.275000000000000E8     1.209015342348141E-1   -4.165376889320681E-1
 9.295000000000000E8     1.116714405802701E-1   -4.231988551581509E-1
 9.315000000000000E8     1.043777312410335E-1   -4.309276015489127E-1
 9.335000000000000E8     9.662542942464326E-2   -4.401971606472847E-1
 9.355000000000000E8     8.673302351257409E-2   -4.482812866196830E-1
 9.375000000000000E8     7.850451091796842E-2   -4.562755607773696E-1
 9.395000000000000E8     7.106200591265620E-2   -4.645405797373883E-1
 9.415000000000000E8     6.310505889232525E-2   -4.739856956724205E-1
 9.435000000000000E8     5.355485715919324E-2   -4.833764571406343E-1
 9.455000000000000E8     4.349770661236750E-2   -4.929367769882916E-1
 9.475000000000000E8     3.206823601802678E-2   -5.020328742528053E-1
 9.495000000000000E8     2.039980497474724E-2   -5.108208330156473E-1
 9.515000000000000E8     7.203583934884839E-3   -5.198756192531923E-1
 9.535000000000000E8    -7.452929045287888E-3   -5.264276915984864E-1
 9.555000000000000E8    -2.328341198742199E-2   -5.322370323775924E-1
 9.575000000000000E8    -3.768526631609371E-2   -5.355326481376959E-1
 9.595000000000000E8    -5.137358528319289E-2   -5.375315717706016E-1
 9.615000000000000E8    -6.406618950692815E-2   -5.381872162817525E-1
 9.635000000000000E8    -7.367921443123625E-2   -5.396069029367988E-1
 9.655000000000000E8    -8.356329108372544E-2   -5.431543696004120E-1
 9.675000000000000E8    -9.349346710454405E-2   -5.486126348098526E-1
 9.695000000000000E8    -1.062522476545947E-1   -5.543830984413581E-1
 9.715000000000000E8    -1.196310051935107E-1   -5.595207498578245E-1
 9.735000000000000E8    -1.343156357734387E-1   -5.631684073852924E-1
 9.755000000000000E8    -1.494920113463120E-1   -5.663056847834818E-1
 9.775000000000000E8    -1.649619479915445E-1   -5.670344376667185E-1
 9.795000000000000E8    -1.798234401366482E-1   -5.671459511086026E-1
 9.815000000000000E8    -1.936237479695234E-1   -5.668358885846432E-1
 9.835000000000000E8    -2.062199564290788E-1   -5.656397243320226E-1
 9.855000000000000E8    -2.184194159209741E-1   -5.665690699933409E-1
 9.875000000000000E8    -2.311788745764750E-1   -5.687316136130888E-1
 9.895000000000000E8    -2.462759316704988E-1   -5.703559970794369E-1
 9.915000000000000E8    -2.630022192496136E-1   -5.706373796573478E-1
 9.935000000000000E8    -2.790543005812588E-1   -5.691356818041282E-1
 9.955000000000000E8    -2.946479776595039E-1   -5.668104975603565E-1
 9.975000000000000E8    -3.093156275294681E-1   -5.639640765811049E-1
 9.995000000000000E8    -3.245090263584256E-1   -5.617982911819496E-1
 1.001500000000000E9    -3.405235521110848E-1   -5.596172703009037E-1
 1.003500000000000E9    -3.569530456627881E-1   -5.560226382955573E-1
 1.005500000000000E9    -3.746403593409300E-1   -5.506611680360940E-1
 1.007500000000000E9    -3.913515376353405E-1   -5.440187796437244E-1
 1.009500000000000E9    -4.071128512548191E-1   -5.354100873923019E-1
 1.011500000000000E9    -4.202560867913290E-1   -5.273596737706082E-1
 1.013500000000000E9    -4.329608309244322E-1   -5.192671433335492E-1
 1.015500000000000E9    -4.455893688438654E-1   -5.114406027975736E-1
 1.017500000000000E9    -4.575095361420389E-1   -5.044154801919391E-1
 1.019500000000000E9    -4.698854664439293E-1   -4.958215685541836E-1
 1.021500000000000E9    -4.829204325334719E-1   -4.877939331146208E-1
 1.023500000000000E9    -4.941741372813607E-1   -4.800872402187700E-1
 1.025500000000000E9    -5.063644606143668E-1   -4.705118639580588E-1
 1.027500000000000E9    -5.173472230412538E-1   -4.613818303239172E-1
 1.029500000000000E9    -5.275725092125299E-1   -4.524217737958975E-1
 1.031500000000000E9    -5.387550980551522E-1   -4.437993481780950E-1
 1.033500000000000E9    -5.491880499165733E-1   -4.356519533343030E-1
 1.035500000000000E9    -5.609009048292230E-1   -4.272049822033878E-1
 1.037500000000000E9    -5.726016662950855E-1   -4.189002845177875E-1
 1.039500000000000E9    -5.846139018541711E-1   -4.089334031152913E-1
 1.041500000000000E9    -5.969360283753534E-1   -3.974736955265678E-1
 1.043500000000000E9    -6.082293242113093E-1   -3.854559953810158E-1
 1.045500000000000E9    -6.193702597726586E-1   -3.728659621081117E-1
 1.047500000000000E9    -6.285010195620628E-1   -3.585223409756045E-1
 1.049500000000000E9    -6.366009053282418E-1   -3.450456727994308E-1
 1.051500000000000E9    -6.441865138255507E-1   -3.326721508028628E-1
 1.053500000000000E9    -6.520840127540645E-1   -3.195048365716251E-1
 1.055500000000000E9    -6.585941644966475E-1   -3.072156727515140E-1
 1.057500000000000E9    -6.649439694627062E-1   -2.953024506695276E-1
 1.059500000000000E9    -6.714227633888817E-1   -2.841603039050383E-1
 1.061500000000000E9    -6.786987817666816E-1   -2.724595189779224E-1
 1.063500000000000E9    -6.868702388661884E-1   -2.617382970846097E-1
 1.065500000000000E9    -6.950612922326940E-1   -2.485294150158118E-1
 1.067500000000000E9    -7.014636391642191E-1   -2.352013914085289E-1
 1.069500000000000E9    -7.081539631217469E-1   -2.226659964848325E-1
