#  HZ   S   RI   R     50.00 
! Rohde & Schwarz Vector Network Analyzer 
! Rohde-Schwarz,ZNB8-2Port,1311601042102944,2.30
! Created: UTC 3/16/2026, 1:14:32 PM
! freq[Hz]                re:S22                  im:S22
 6.695000000000000E8    -6.989329478139703E-1    2.371861649904638E-1
 6.715000000000000E8    -6.947222029513642E-1    2.526784845303603E-1
 6.735000000000000E8    -6.878092254704201E-1    2.667896864815838E-1
 6.755000000000000E8    -6.808847196714161E-1    2.801650421022244E-1
 6.775000000000000E8    -6.717427833285289E-1    2.929149466869000E-1
 6.795000000000000E8    -6.628794518659954E-1    3.047630780926869E-1
 6.815000000000000E8    -6.531007878985540E-1    3.149978054441895E-1
 6.835000000000000E8    -6.449414576804774E-1    3.248623672608659E-1
 6.855000000000000E8    -6.358140554744886E-1    3.350228342574723E-1
 6.875000000000000E8    -6.260423890324388E-1    3.445761258965281E-1
 6.895000000000000E8    -6.163637808447025E-1    3.521934630112180E-1
 6.915000000000000E8    -6.074286338957512E-1    3.607005936596986E-1
 6.935000000000000E8    -5.988918748692216E-1    3.699147383017670E-1
 6.955000000000000E8    -5.876317352145142E-1    3.783388701844970E-1
 6.975000000000000E8    -5.767820786463669E-1    3.863697766043501E-1
 6.995000000000000E8    -5.651795852161637E-1    3.930045110192116E-1
 7.015000000000000E8    -5.532112674376132E-1    3.979741859450483E-1
 7.035000000000000E8    -5.431342875055037E-1    4.004932882489709E-1
 7.055000000000000E8    -5.362580429443825E-1    4.032834436025905E-1
 7.075000000000000E8    -5.301981722907102E-1    4.081845247483085E-1
 7.095000000000000E8    -5.240265873516800E-1    4.143359222723099E-1
 7.115000000000000E8    -5.185899460836919E-1    4.215677104800369E-1
 7.135000000000000E8    -5.117779778160861E-1    4.306034865931233E-1
 7.155000000000000E8    -5.037549008183070E-1    4.408909083772390E-1
 7.175000000000000E8    -4.927846008616027E-1    4.509180766151307E-1
 7.195000000000000E8    -4.812752576165852E-1    4.597680514516326E-1
 7.215000000000000E8    -4.704689907587984E-1    4.671942341521201E-1
 7.235000000000000E8    -4.602446076025498E-1    4.752992879838566E-1
 7.255000000000000E8    -4.489302527766155E-1    4.842800243561513E-1
 7.275000000000000E8    -4.354053311814174E-1    4.941506010522827E-1
 7.295000000000000E8    -4.207198983404858E-1    5.027673577068601E-1
 7.315000000000000E8    -4.050716145266334E-1    5.107639077720589E-1
 7.335000000000000E8    -3.877168226742157E-1    5.170857952738671E-1
 7.355000000000000E8    -3.689052256100472E-1    5.225330740645791E-1
 7.375000000000000E8    -3.501404990798309E-1    5.244934871027294E-1
 7.395000000000000E8    -3.324478423531813E-1    5.243092653860667E-1
 7.415000000000000E8    -3.161839795296923E-1    5.233425632225912E-1
 7.435000000000000E8    -3.001947798854782E-1    5.220235937947926E-1
 7.455000000000000E8    -2.858058374683929E-1    5.210602094209800E-1
 7.475000000000000E8    -2.712759120139723E-1    5.199396961157613E-1
 7.495000000000000E8    -2.557053470422013E-1    5.181814775054119E-1
 7.515000000000000E8    -2.398834018541086E-1    5.162347565526457E-1
 7.535000000000000E8    -2.243005878282102E-1    5.144313040873941E-1
 7.555000000000000E8    -2.086618128995370E-1    5.105163282866865E-1
 7.575000000000000E8    -1.940409822693677E-1    5.045049295865651E-1
 7.595000000000000E8    -1.818026550578035E-1    4.965126924089008E-1
 7.615000000000000E8    -1.718203257269609E-1    4.875956135793438E-1
 7.635000000000000E8    -1.628921044328448E-1    4.785492000872710E-1
 7.655000000000000E8    -1.554807020055309E-1    4.727005037006378E-1
 7.675000000000000E8    -1.473543379105115E-1    4.684058886092850E-1
 7.695000000000000E8    -1.385304849689401E-1    4.639969524364221E-1
 7.715000000000000E8    -1.294781235283800E-1    4.603850583991875E-1
 7.735000000000000E8    -1.204570686796216E-1    4.570201596001153E-1
 7.755000000000000E8    -1.107750131296801E-1    4.526929306540182E-1
 7.775000000000000E8    -1.007101014249660E-1    4.467782777610276E-1
 7.795000000000000E8    -9.333592155524952E-2    4.410534496698459E-1
 7.815000000000000E8    -8.578558795710367E-2    4.361955992527551E-1
 7.835000000000000E8    -7.749823284802139E-2    4.318705421528872E-1
 7.855000000000000E8    -6.859688518160749E-2    4.276183068954932E-1
 7.875000000000000E8    -5.982344416898978E-2    4.230429834581724E-1
 7.895000000000000E8    -5.047654246265193E-2    4.184884666587057E-1
 7.915000000000000E8    -4.143637270741241E-2    4.133884994950388E-1
 7.935000000000000E8    -3.159964414444414E-2    4.086386135388089E-1
 7.955000000000000E8    -1.816495436880632E-2    4.024822349544101E-1
 7.975000000000000E8    -1.044356728739730E-2    3.930063589642898E-1
 7.995000000000000E8    -2.654862731192115E-3    3.841772046564436E-1
 8.015000000000000E8     6.195187370032300E-3    3.773353005358943E-1
 8.035000000000000E8     1.310931919265155E-2    3.691863176081523E-1
 8.055000000000000E8     2.048447274243661E-2    3.618808163989944E-1
 8.075000000000000E8     2.864460447274083E-2    3.549634715368329E-1
 8.095000000000000E8     3.793651049994518E-2    3.464990495843300E-1
 8.115000000000000E8     4.668815902709406E-2    3.359753898557122E-1
 8.135000000000000E8     5.302171556965141E-2    3.247409330876370E-1
 8.155000000000000E8     5.749991561091966E-2    3.142552357928686E-1
 8.175000000000000E8     6.291038268155894E-2    3.057217653829330E-1
 8.195000000000000E8     6.889768041701944E-2    2.967601289279248E-1
 8.215000000000000E8     7.554289495346243E-2    2.863962191546698E-1
 8.235000000000000E8     8.034301896702999E-2    2.750090837513892E-1
 8.255000000000000E8     8.426646150734764E-2    2.645343544521561E-1
 8.275000000000000E8     8.859187772787547E-2    2.540659429101936E-1
 8.295000000000000E8     9.315520753850733E-2    2.422133573775257E-1
 8.315000000000000E8     9.567368940452482E-2    2.294436942702443E-1
 8.335000000000000E8     9.754687196097875E-2    2.174867416122418E-1
 8.355000000000000E8     9.824291649627444E-2    2.052385940407141E-1
 8.375000000000000E8     9.788486163622284E-2    1.940578621834240E-1
 8.395000000000000E8     9.703300784678245E-2    1.831947696327274E-1
 8.415000000000000E8     9.578866261327416E-2    1.722838237018345E-1
 8.435000000000000E8     9.316790455694797E-2    1.630692070465038E-1
 8.455000000000000E8     9.049098764649952E-2    1.550932644513319E-1
 8.475000000000000E8     8.863118024631347E-2    1.492707195434606E-1
 8.495000000000000E8     8.884390485638478E-2    1.440872752001591E-1
 8.515000000000000E8     9.194032083723572E-2    1.375903823146201E-1
 8.535000000000000E8     9.470102489243702E-2    1.266561656426294E-1
 8.555000000000000E8     9.404346263354496E-2    1.143272921833656E-1
 8.575000000000000E8     9.063020210035015E-2    1.044260881407535E-1
 8.595000000000000E8     8.764649899227649E-2    9.547016991523132E-2
 8.615000000000000E8     8.376911157556763E-2    8.688802802153671E-2
 8.635000000000000E8     7.961359783622328E-2    8.122724780160943E-2
 8.655000000000000E8     7.738738154954626E-2    7.644183482765340E-2
 8.675000000000000E8     7.575989752831554E-2    7.066939077171626E-2
 8.695000000000000E8     7.471385030417113E-2    6.436770572733726E-2
 8.715000000000000E8     7.379576567988237E-2    6.010308781316845E-2
 8.735000000000000E8     7.489000828199985E-2    5.461521197915453E-2
 8.755000000000000E8     7.793163850685127E-2    4.802128719911967E-2
 8.775000000000000E8     8.120956349185442E-2    3.973510014264139E-2
 8.795000000000000E8     8.358124581605317E-2    2.784732583937688E-2
 8.815000000000000E8     8.314004382387298E-2    1.368524816556989E-2
 8.835000000000000E8     7.989735939092735E-2    1.258331829803194E-4
 8.855000000000000E8     7.542589171984739E-2   -1.182253478023323E-2
 8.875000000000000E8     6.979381343530781E-2   -2.465064103674260E-2
 8.895000000000000E8     6.231837835300024E-2   -3.638086850210786E-2
 8.915000000000000E8     5.355855778089095E-2   -4.630657827019229E-2
 8.935000000000000E8     4.480217296611491E-2   -5.563542847563680E-2
 8.955000000000000E8     3.548484661908859E-2   -6.262540142858335E-2
 8.975000000000000E8     2.636439358001739E-2   -6.870582649347888E-2
 8.995000000000000E8     1.791458000585584E-2   -7.433227267598931E-2
 9.015000000000000E8     8.721251647763762E-3   -7.986394454147539E-2
 9.035000000000000E8    -5.064813828832782E-4   -8.262186024652447E-2
 9.055000000000000E8    -7.382836111894004E-3   -8.466484007582129E-2
 9.075000000000000E8    -1.304491985769961E-2   -8.667181949465268E-2
 9.095000000000000E8    -1.776455997801649E-2   -8.946887349611922E-2
 9.115000000000000E8    -2.055655171736210E-2   -9.339616034752700E-2
 9.135000000000000E8    -2.443250642262348E-2   -9.913258775849211E-2
 9.155000000000000E8    -2.959179316491785E-2   -1.057850444168394E-1
 9.175000000000000E8    -3.582200777009891E-2   -1.112994852387242E-1
 9.195000000000000E8    -4.110837130724425E-2   -1.156991340089237E-1
 9.215000000000000E8    -4.580905080014138E-2   -1.215535836926543E-1
 9.235000000000000E8    -5.112064119602215E-2   -1.279300566094238E-1
 9.255000000000000E8    -5.589120661587111E-2   -1.343731362328742E-1
 9.275000000000000E8    -6.150206364909412E-2   -1.434919697712432E-1
 9.295000000000000E8    -6.997594635228031E-2   -1.532981859624421E-1
 9.315000000000000E8    -8.070727362211407E-2   -1.617241477835068E-1
 9.335000000000000E8    -9.183199759373732E-2   -1.681435204459384E-1
 9.355000000000000E8    -1.027578346494671E-1   -1.743575890602018E-1
 9.375000000000000E8    -1.137003760140727E-1   -1.797636605414789E-1
 9.395000000000000E8    -1.247817792124981E-1   -1.862712151129277E-1
 9.415000000000000E8    -1.374674617788699E-1   -1.915862747810879E-1
 9.435000000000000E8    -1.510728622608781E-1   -1.967311238584663E-1
 9.455000000000000E8    -1.650204098850405E-1   -2.012720651227270E-1
 9.475000000000000E8    -1.800537364315139E-1   -2.038049238131471E-1
 9.495000000000000E8    -1.947281753183213E-1   -2.053103984864929E-1
 9.515000000000000E8    -2.086380163749446E-1   -2.056499534717177E-1
 9.535000000000000E8    -2.237002111709056E-1   -2.056566956857107E-1
 9.555000000000000E8    -2.372806165337141E-1   -2.051501303280380E-1
 9.575000000000000E8    -2.523981884154156E-1   -2.047642365772353E-1
 9.595000000000000E8    -2.671239920553163E-1   -2.022988275974853E-1
 9.615000000000000E8    -2.824120418208592E-1   -1.999148790513292E-1
 9.635000000000000E8    -2.972087560678460E-1   -1.963281216381263E-1
 9.655000000000000E8    -3.119304868310184E-1   -1.912955609571255E-1
 9.675000000000000E8    -3.270680905075658E-1   -1.854263328843165E-1
 9.695000000000000E8    -3.407421735817418E-1   -1.785527525533621E-1
 9.715000000000000E8    -3.543264428425229E-1   -1.707982705259266E-1
 9.735000000000000E8    -3.674435390922306E-1   -1.614204070366493E-1
 9.755000000000000E8    -3.770136590055200E-1   -1.500254078404326E-1
 9.775000000000000E8    -3.845110457671436E-1   -1.405955107840838E-1
 9.795000000000000E8    -3.915286815919626E-1   -1.328195245160735E-1
 9.815000000000000E8    -3.996481551266111E-1   -1.257213747955999E-1
 9.835000000000000E8    -4.070899665558690E-1   -1.191512869141757E-1
 9.855000000000000E8    -4.167080402438536E-1   -1.121428428825345E-1
 9.875000000000000E8    -4.252481306477166E-1   -1.048838601379952E-1
 9.895000000000000E8    -4.334705408429304E-1   -9.658194445539840E-2
 9.915000000000000E8    -4.421280589011341E-1   -8.957961839554653E-2
 9.935000000000000E8    -4.502260860552796E-1   -8.189458894816795E-2
 9.955000000000000E8    -4.590424923762327E-1   -7.368459531134901E-2
 9.975000000000000E8    -4.681233417275221E-1   -6.457735140971663E-2
 9.995000000000000E8    -4.760112699879414E-1   -5.471762465995378E-2
 1.001500000000000E9    -4.841312722425792E-1   -4.477474497427716E-2
 1.003500000000000E9    -4.909757438979062E-1   -3.431800861647778E-2
 1.005500000000000E9    -4.974102300235393E-1   -2.320663358279323E-2
 1.007500000000000E9    -5.033791320569930E-1   -1.314436692949616E-2
 1.009500000000000E9    -5.088730569447811E-1   -3.762807287660496E-3
 1.011500000000000E9    -5.162520665719317E-1    6.321271541631653E-3
 1.013500000000000E9    -5.220150011213750E-1    1.661817385330441E-2
 1.015500000000000E9    -5.286514337645143E-1    2.732642140672058E-2
 1.017500000000000E9    -5.351392724651416E-1    3.911920871301412E-2
 1.019500000000000E9    -5.407288878991569E-1    5.246455091996798E-2
 1.021500000000000E9    -5.450473649145938E-1    6.573448104786135E-2
 1.023500000000000E9    -5.480937679519292E-1    7.908814196835594E-2
 1.025500000000000E9    -5.502420285562527E-1    9.193839562085693E-2
 1.027500000000000E9    -5.522511740916658E-1    1.034127302370071E-1
 1.029500000000000E9    -5.543108943711460E-1    1.156947740497847E-1
 1.031500000000000E9    -5.560795074315570E-1    1.283906489531820E-1
 1.033500000000000E9    -5.578640748103109E-1    1.403823751267960E-1
 1.035500000000000E9    -5.586876087216673E-1    1.526358161364212E-1
 1.037500000000000E9    -5.580909961758701E-1    1.652560138526198E-1
 1.039500000000000E9    -5.573619678807205E-1    1.771452370157074E-1
 1.041500000000000E9    -5.557930897142029E-1    1.881093993829522E-1
 1.043500000000000E9    -5.551897704678749E-1    1.991414935948825E-1
 1.045500000000000E9    -5.545873172130542E-1    2.110373241693723E-1
 1.047500000000000E9    -5.539669025258976E-1    2.226068306821072E-1
 1.049500000000000E9    -5.520953872845326E-1    2.340844253853302E-1
 1.051500000000000E9    -5.486246350301629E-1    2.455156367909446E-1
 1.053500000000000E9    -5.456007791013625E-1    2.553570442467055E-1
 1.055500000000000E9    -5.434259250187592E-1    2.654748674685595E-1
 1.057500000000000E9    -5.417416756530740E-1    2.755186181302656E-1
 1.059500000000000E9    -5.387888172452753E-1    2.852772562742238E-1
 1.061500000000000E9    -5.353251485964117E-1    2.955251634269721E-1
 1.063500000000000E9    -5.317611851767177E-1    3.051162271085278E-1
 1.065500000000000E9    -5.291841252377389E-1    3.125745896548099E-1
 1.067500000000000E9    -5.267521337047038E-1    3.211318148885521E-1
 1.069500000000000E9    -5.245271410055292E-1    3.306917889139495E-1
