#  HZ   S   RI   R     50.00 
! Rohde & Schwarz Vector Network Analyzer 
! Rohde-Schwarz,ZNB8-2Port,1311601042102944,2.30
! Created: UTC 3/16/2026, 1:13:16 PM
! freq[Hz]                re:S22                  im:S22
 6.695000000000000E8    -3.617523162074370E-1   -4.624788974351225E-1
 6.715000000000000E8    -3.521154359194154E-1   -4.625158320943129E-1
 6.735000000000000E8    -3.428185159025446E-1   -4.650563418400839E-1
 6.755000000000000E8    -3.354557012144588E-1   -4.697807473103992E-1
 6.775000000000000E8    -3.299755632078700E-1   -4.760954889685332E-1
 6.795000000000000E8    -3.280255697599576E-1   -4.834585445842047E-1
 6.815000000000000E8    -3.275501862283997E-1   -4.893275867380158E-1
 6.835000000000000E8    -3.279820481186535E-1   -4.946537841991778E-1
 6.855000000000000E8    -3.293353444140143E-1   -5.007067854255323E-1
 6.875000000000000E8    -3.331806335572990E-1   -5.057473169566220E-1
 6.895000000000000E8    -3.375571268606205E-1   -5.082376623906532E-1
 6.915000000000000E8    -3.413333336928267E-1   -5.096004463913725E-1
 6.935000000000000E8    -3.443838635974806E-1   -5.100472309074730E-1
 6.955000000000000E8    -3.466208997926127E-1   -5.110011709596627E-1
 6.975000000000000E8    -3.489953388936356E-1   -5.121831301173178E-1
 6.995000000000000E8    -3.526363106437034E-1   -5.146541722530038E-1
 7.015000000000000E8    -3.577470429758592E-1   -5.159747488644760E-1
 7.035000000000000E8    -3.642447667753692E-1   -5.141412894019692E-1
 7.055000000000000E8    -3.682795631550411E-1   -5.097575977408848E-1
 7.075000000000000E8    -3.696227881574396E-1   -5.055037022583644E-1
 7.095000000000000E8    -3.692498036296629E-1   -5.026249149406712E-1
 7.115000000000000E8    -3.695061889514784E-1   -4.992059899691754E-1
 7.135000000000000E8    -3.679195892120081E-1   -4.978220666219622E-1
 7.155000000000000E8    -3.656909178193690E-1   -4.964617309145959E-1
 7.175000000000000E8    -3.635555583636254E-1   -4.975815978420286E-1
 7.195000000000000E8    -3.629934142278554E-1   -5.012524281760667E-1
 7.215000000000000E8    -3.652425890897894E-1   -5.030292503499358E-1
 7.235000000000000E8    -3.661736380451144E-1   -5.041242659429902E-1
 7.255000000000000E8    -3.660448838879445E-1   -5.052707276081347E-1
 7.275000000000000E8    -3.658517079579687E-1   -5.081268710927055E-1
 7.295000000000000E8    -3.663203610462207E-1   -5.117187243253348E-1
 7.315000000000000E8    -3.685077148299004E-1   -5.158559437983944E-1
 7.335000000000000E8    -3.708863048680459E-1   -5.205342290335461E-1
 7.355000000000000E8    -3.753483673899416E-1   -5.265443619687543E-1
 7.375000000000000E8    -3.821784230563114E-1   -5.305555653842565E-1
 7.395000000000000E8    -3.890606269802350E-1   -5.328638872379575E-1
 7.415000000000000E8    -3.953081195205823E-1   -5.339063594585289E-1
 7.435000000000000E8    -4.009998869576914E-1   -5.346053807806144E-1
 7.455000000000000E8    -4.069703228998793E-1   -5.355990571345429E-1
 7.475000000000000E8    -4.143597033730728E-1   -5.361731126486040E-1
 7.495000000000000E8    -4.218444484199846E-1   -5.370452296438105E-1
 7.515000000000000E8    -4.305121489238429E-1   -5.346968485432818E-1
 7.535000000000000E8    -4.385194294494628E-1   -5.316413445114860E-1
 7.555000000000000E8    -4.451879898805673E-1   -5.299342624967305E-1
 7.575000000000000E8    -4.521390388821228E-1   -5.282424739825431E-1
 7.595000000000000E8    -4.585056112560917E-1   -5.279485944116027E-1
 7.615000000000000E8    -4.637178744233006E-1   -5.270977630431988E-1
 7.635000000000000E8    -4.689039310552179E-1   -5.243917625843728E-1
 7.655000000000000E8    -4.752199228647147E-1   -5.191737421250261E-1
 7.675000000000000E8    -4.798923314419472E-1   -5.140780371896538E-1
 7.695000000000000E8    -4.858072871268013E-1   -5.088421648152058E-1
 7.715000000000000E8    -4.910284266357025E-1   -5.029098070768779E-1
 7.735000000000000E8    -4.945141849760688E-1   -4.981690570467381E-1
 7.755000000000000E8    -4.976259639069436E-1   -4.940885926196383E-1
 7.775000000000000E8    -5.013738018969230E-1   -4.909644834658268E-1
 7.795000000000000E8    -5.051524769165601E-1   -4.869454178351526E-1
 7.815000000000000E8    -5.083278578667309E-1   -4.813204796285264E-1
 7.835000000000000E8    -5.102125389873469E-1   -4.771830204785197E-1
 7.855000000000000E8    -5.124050934501887E-1   -4.721368455906370E-1
 7.875000000000000E8    -5.146731925067315E-1   -4.671230119429831E-1
 7.895000000000000E8    -5.163640275960324E-1   -4.635400781991504E-1
 7.915000000000000E8    -5.170936032650733E-1   -4.591446269444013E-1
 7.935000000000000E8    -5.169846845658138E-1   -4.558606866177389E-1
 7.955000000000000E8    -5.172402867483417E-1   -4.557104951224322E-1
 7.975000000000000E8    -5.224323446901480E-1   -4.536179624879471E-1
 7.995000000000000E8    -5.247922531516913E-1   -4.499453139297959E-1
 8.015000000000000E8    -5.287724348779923E-1   -4.464828361607142E-1
 8.035000000000000E8    -5.311204569797080E-1   -4.433703935749332E-1
 8.055000000000000E8    -5.342486436436287E-1   -4.394366802731470E-1
 8.075000000000000E8    -5.360811151156175E-1   -4.351226373242671E-1
 8.095000000000000E8    -5.380743549896168E-1   -4.321614385368243E-1
 8.115000000000000E8    -5.396077258199493E-1   -4.295810110779352E-1
 8.135000000000000E8    -5.430686255763556E-1   -4.258105958262372E-1
 8.155000000000000E8    -5.461359584950029E-1   -4.225916322907237E-1
 8.175000000000000E8    -5.489703504918724E-1   -4.171436218582289E-1
 8.195000000000000E8    -5.504692328821744E-1   -4.141307073890627E-1
 8.215000000000000E8    -5.521220074872653E-1   -4.111030964025054E-1
 8.235000000000000E8    -5.552163779475329E-1   -4.075446381054431E-1
 8.255000000000000E8    -5.572934744964031E-1   -4.029477568689170E-1
 8.275000000000000E8    -5.588646945025736E-1   -3.986438395421112E-1
 8.295000000000000E8    -5.606015153714001E-1   -3.956303374574101E-1
 8.315000000000000E8    -5.621856265080958E-1   -3.918510941701519E-1
 8.335000000000000E8    -5.645919908656686E-1   -3.888828723888292E-1
 8.355000000000000E8    -5.669486469993080E-1   -3.856885342139098E-1
 8.375000000000000E8    -5.701895626173865E-1   -3.813954854683361E-1
 8.395000000000000E8    -5.732849991568203E-1   -3.768271073110899E-1
 8.415000000000000E8    -5.761108743827089E-1   -3.713037958745534E-1
 8.435000000000000E8    -5.785841001034059E-1   -3.662046492966097E-1
 8.455000000000000E8    -5.797969849876712E-1   -3.593220154785000E-1
 8.475000000000000E8    -5.791585558706177E-1   -3.527369430459331E-1
 8.495000000000000E8    -5.774637787252839E-1   -3.474680029609407E-1
 8.515000000000000E8    -5.764071154122080E-1   -3.442999614465352E-1
 8.535000000000000E8    -5.762940047425641E-1   -3.425914504693823E-1
 8.555000000000000E8    -5.773857962960606E-1   -3.398864800858005E-1
 8.575000000000000E8    -5.794539362519486E-1   -3.350352555672708E-1
 8.595000000000000E8    -5.801696335864480E-1   -3.305800049373630E-1
 8.615000000000000E8    -5.804870693549650E-1   -3.255402893590155E-1
 8.635000000000000E8    -5.799595283120481E-1   -3.207209828428989E-1
 8.655000000000000E8    -5.784589161072749E-1   -3.164938614854679E-1
 8.675000000000000E8    -5.774115155656350E-1   -3.134071365121190E-1
 8.695000000000000E8    -5.764120123987879E-1   -3.104953584069510E-1
 8.715000000000000E8    -5.753549873869961E-1   -3.072617235843769E-1
 8.735000000000000E8    -5.734937971400131E-1   -3.053586362823461E-1
 8.755000000000000E8    -5.717881385184481E-1   -3.040384422218578E-1
 8.775000000000000E8    -5.711277005342084E-1   -3.041278581687370E-1
 8.795000000000000E8    -5.703964486321177E-1   -3.036017488358547E-1
 8.815000000000000E8    -5.720762572126348E-1   -3.033314264833205E-1
 8.835000000000000E8    -5.728508709809543E-1   -3.022033865171430E-1
 8.855000000000000E8    -5.739273998374126E-1   -3.014719949644923E-1
 8.875000000000000E8    -5.755405811125387E-1   -3.009372710892803E-1
 8.895000000000000E8    -5.785757465397403E-1   -2.995636340435817E-1
 8.915000000000000E8    -5.811497510426685E-1   -2.981588210059003E-1
 8.935000000000000E8    -5.846911814976552E-1   -2.951546307506012E-1
 8.955000000000000E8    -5.872048325618889E-1   -2.919324158994014E-1
 8.975000000000000E8    -5.893442781143611E-1   -2.879437252387579E-1
 8.995000000000000E8    -5.905716606976561E-1   -2.838594459326216E-1
 9.015000000000000E8    -5.932361583821098E-1   -2.810114175507776E-1
 9.035000000000000E8    -5.941209961305723E-1   -2.747000222020452E-1
 9.055000000000000E8    -5.940022614166768E-1   -2.698171199116053E-1
 9.075000000000000E8    -5.926260504031679E-1   -2.646114484808547E-1
 9.095000000000000E8    -5.908446929516085E-1   -2.591443302295450E-1
 9.115000000000000E8    -5.868460913111854E-1   -2.559877502582939E-1
 9.135000000000000E8    -5.837521924643573E-1   -2.548606498335135E-1
 9.155000000000000E8    -5.815911712190252E-1   -2.532779941640929E-1
 9.175000000000000E8    -5.799187735266520E-1   -2.534990502795218E-1
 9.195000000000000E8    -5.781723942153844E-1   -2.535938535057760E-1
 9.215000000000000E8    -5.776195011078054E-1   -2.535304879560539E-1
 9.235000000000000E8    -5.778039870485269E-1   -2.547380256316518E-1
 9.255000000000000E8    -5.782969288874698E-1   -2.551416944676114E-1
 9.275000000000000E8    -5.795985473507048E-1   -2.566683086436323E-1
 9.295000000000000E8    -5.816271904487436E-1   -2.576847328660566E-1
 9.315000000000000E8    -5.836400596828297E-1   -2.572266778706610E-1
 9.335000000000000E8    -5.855394258426795E-1   -2.576289489753226E-1
 9.355000000000000E8    -5.877749920608413E-1   -2.581678775730625E-1
 9.375000000000000E8    -5.898098739430410E-1   -2.588205597564475E-1
 9.395000000000000E8    -5.932824496802466E-1   -2.601538265937592E-1
 9.415000000000000E8    -5.970682848603598E-1   -2.603579582211743E-1
 9.435000000000000E8    -6.012363511746937E-1   -2.608326671421889E-1
 9.455000000000000E8    -6.058310555827388E-1   -2.601947294823727E-1
 9.475000000000000E8    -6.108725441927799E-1   -2.580173917267061E-1
 9.495000000000000E8    -6.144595993884937E-1   -2.563109730489749E-1
 9.515000000000000E8    -6.174652028300874E-1   -2.540305583498442E-1
 9.535000000000000E8    -6.201452095964093E-1   -2.528246902632393E-1
 9.555000000000000E8    -6.244176651969279E-1   -2.522737810351506E-1
 9.575000000000000E8    -6.295317554818992E-1   -2.513226278221758E-1
 9.595000000000000E8    -6.354606658396160E-1   -2.489572781906443E-1
 9.615000000000000E8    -6.408232286067297E-1   -2.461340250533357E-1
 9.635000000000000E8    -6.471668209277193E-1   -2.426182262563733E-1
 9.655000000000000E8    -6.533417389285151E-1   -2.386029589663099E-1
 9.675000000000000E8    -6.580456029155273E-1   -2.327078042722904E-1
 9.695000000000000E8    -6.629959811380268E-1   -2.274332014817597E-1
 9.715000000000000E8    -6.674535836358880E-1   -2.223142610843166E-1
 9.735000000000000E8    -6.713726296378010E-1   -2.159560634717470E-1
 9.755000000000000E8    -6.731100392896275E-1   -2.091361044493953E-1
 9.775000000000000E8    -6.749081375986914E-1   -2.029201936639676E-1
 9.795000000000000E8    -6.767046520979760E-1   -1.977089533017640E-1
 9.815000000000000E8    -6.782103476431771E-1   -1.922657686224649E-1
 9.835000000000000E8    -6.801021798107481E-1   -1.865922918362942E-1
 9.855000000000000E8    -6.816753141474079E-1   -1.810022136405512E-1
 9.875000000000000E8    -6.827527392659571E-1   -1.757784967073116E-1
 9.895000000000000E8    -6.828352311068481E-1   -1.702748066288893E-1
 9.915000000000000E8    -6.835414768225412E-1   -1.652232235429314E-1
 9.935000000000000E8    -6.844218991926910E-1   -1.615702109079022E-1
 9.955000000000000E8    -6.859536998220767E-1   -1.573254327725425E-1
 9.975000000000000E8    -6.879208764826409E-1   -1.527473975450903E-1
 9.995000000000000E8    -6.891187479016834E-1   -1.473094073111500E-1
 1.001500000000000E9    -6.900217897608806E-1   -1.420072011642602E-1
 1.003500000000000E9    -6.911270575923287E-1   -1.367443005361927E-1
 1.005500000000000E9    -6.905900238617183E-1   -1.321893100468735E-1
 1.007500000000000E9    -6.908629674776399E-1   -1.281831644664536E-1
 1.009500000000000E9    -6.913613472775482E-1   -1.241606766500199E-1
 1.011500000000000E9    -6.921641294405834E-1   -1.211813220499721E-1
 1.013500000000000E9    -6.939071052238229E-1   -1.177069247139342E-1
 1.015500000000000E9    -6.954007882064915E-1   -1.131038512585981E-1
 1.017500000000000E9    -6.967158433503516E-1   -1.081918530888722E-1
 1.019500000000000E9    -6.980101645006381E-1   -1.020672253097983E-1
 1.021500000000000E9    -6.986202959757512E-1   -9.703122166396429E-2
 1.023500000000000E9    -6.983081387959264E-1   -9.190709469913683E-2
 1.025500000000000E9    -6.982969626134670E-1   -8.712073910445276E-2
 1.027500000000000E9    -6.980941048108579E-1   -8.276736761771228E-2
 1.029500000000000E9    -6.988650549300154E-1   -7.757204884865555E-2
 1.031500000000000E9    -6.988672912682941E-1   -7.230802974233037E-2
 1.033500000000000E9    -6.983408276685158E-1   -6.653490758950756E-2
 1.035500000000000E9    -6.968089208616529E-1   -6.127934488897462E-2
 1.037500000000000E9    -6.953049558710367E-1   -5.672450198071612E-2
 1.039500000000000E9    -6.936396725170553E-1   -5.259187934355449E-2
 1.041500000000000E9    -6.921202516650278E-1   -4.850289092665860E-2
 1.043500000000000E9    -6.899049862133306E-1   -4.479909905298556E-2
 1.045500000000000E9    -6.886548646652272E-1   -4.130329753457460E-2
 1.047500000000000E9    -6.871820405593220E-1   -3.729975006998411E-2
 1.049500000000000E9    -6.859474692691225E-1   -3.328241528876452E-2
 1.051500000000000E9    -6.837831229948141E-1   -2.888376371401118E-2
 1.053500000000000E9    -6.816541387832386E-1   -2.597953236488176E-2
 1.055500000000000E9    -6.802535563665867E-1   -2.270341796634693E-2
 1.057500000000000E9    -6.778401921350389E-1   -2.050110138047255E-2
 1.059500000000000E9    -6.754473416954657E-1   -1.746093220169498E-2
 1.061500000000000E9    -6.733973317138304E-1   -1.610783654081959E-2
 1.063500000000000E9    -6.714842244294640E-1   -1.489821580424007E-2
 1.065500000000000E9    -6.712224940113150E-1   -1.393289049249644E-2
 1.067500000000000E9    -6.709774227235429E-1   -1.249018599285433E-2
 1.069500000000000E9    -6.707314378439031E-1   -1.025491800759527E-2
